! Created with skrf 1.11.0 (http://scikit-rf.org).
# GHz S DB R 50.0 
!freq dBS11 angS11 dBS12 angS12 dBS13 angS13
! dBS14 angS14 dBS15 angS15 dBS16 angS16 dBS17 angS17
! dBS21 angS21 dBS22 angS22 dBS23 angS23
! dBS24 angS24 dBS25 angS25 dBS26 angS26 dBS27 angS27
! dBS31 angS31 dBS32 angS32 dBS33 angS33
! dBS34 angS34 dBS35 angS35 dBS36 angS36 dBS37 angS37
! dBS41 angS41 dBS42 angS42 dBS43 angS43
! dBS44 angS44 dBS45 angS45 dBS46 angS46 dBS47 angS47
! dBS51 angS51 dBS52 angS52 dBS53 angS53
! dBS54 angS54 dBS55 angS55 dBS56 angS56 dBS57 angS57
! dBS61 angS61 dBS62 angS62 dBS63 angS63
! dBS64 angS64 dBS65 angS65 dBS66 angS66 dBS67 angS67
! dBS71 angS71 dBS72 angS72 dBS73 angS73
! dBS74 angS74 dBS75 angS75 dBS76 angS76 dBS77 angS77
!
80.0 -0.199342181461058 -116.91874216261748 -60.313342609022655 123.22457938073129 -55.03459154210266 167.77344115773124 -54.63092874776266 144.67542607113126
 -58.19704202100266 -15.224342175418732 -61.47387127615265 -35.74429500246873 -65.07295922795265 81.53418527665127
 -60.31334260880265 123.22457938073129 -5.852766446125484 133.81572597893413 -8.576854569218884 -119.0555027992284 -10.333142002108735 -99.79474229396764
 -9.424007944721428 -154.48709320055534 -11.080473581984053 -136.04897422500363 -7.636718757084489 -24.5148025218252
 -55.034591542122655 167.7734411573313 -8.576854569261886 -119.0555027983284 -13.344247487025891 165.47225680141185 -3.8096446533682826 -50.93930266982521
 -11.549767164038165 127.19963343877876 -12.890601896640941 144.1477543263019 -9.394551999412744 -155.62161938956686
 -54.63092874768265 144.67542607073125 -10.333142002058732 -99.79474229346764 -3.8096446533762833 -50.93930267005519 -7.089974299192365 164.69686014734336
 -12.995744124094848 144.3498212933596 -14.511597401903318 160.7668416084942 -11.177373928975845 -137.01490839100617
 -58.197042020962655 -15.224342175928726 -9.424007944696427 -154.48709320225532 -11.549767163848161 127.19963343597875 -12.995744123984847 144.34982129095965
 -13.475082074265185 162.87725452689358 -3.7566757421590924 -50.1460325456013 -8.557044759759567 -118.0208259323127
 -61.473871276212655 -35.74429500374874 -11.080473582104059 -136.04897422640363 -12.890601896610942 144.1477543234019 -14.511597401943312 160.7668416059942
 -3.756675742127093 -50.146032545491295 -7.297181173964161 164.78720861876127 -10.185351028284513 -98.97304342034236
 -65.07295922789267 81.53418527887126 -7.636718757137489 -24.5148025216652 -9.394551999450744 -155.62161939036685 -11.177373929095847 -137.01490839150617
 -8.557044759679567 -118.02082593141273 -10.185351028134516 -98.97304342035235 -5.901933554222686 133.87537408903262
81.6 -0.20610194809863064 -118.36710516146762 -60.40932220538845 120.03250287488467 -55.02959327143845 163.7128427605847 -54.54071116860845 140.4160697198847
 -57.72583060773846 -19.55725575632531 -60.641589573958456 -41.79206440583532 -65.57025677727844 75.0361349122447
 -60.40932220549845 120.03250287468474 -6.030591739946867 132.33395330323745 -8.507812352179155 -122.56828774777449 -10.468692164458712 -102.56150394302904
 -9.315312196723236 -158.28009388009283 -11.177360167110603 -139.43082061231704 -7.425613063748482 -25.099755209623282
 -55.029593271658456 163.7128427598847 -8.507812352280155 -122.56828774807448 -13.05964357117253 169.07092947757005 -3.8398476960169043 -53.50783504065191
 -11.691962385903105 122.01839004038733 -13.065745965917976 139.6655668911661 -9.295035458771713 -159.37388924433836
 -54.540711168708455 140.4160697189847 -10.468692164588713 -102.56150394332901 -3.839847695997904 -53.50783504083189 -6.834671451657219 164.727735994328
 -13.169247954766604 139.89552713894238 -14.73791453964923 156.25740626175255 -11.283335906894381 -140.3480489709737
 -57.72583060805846 -19.557255756515303 -9.315312196566236 -158.28009387979284 -11.691962386133106 122.01839004058732 -13.169247954936601 139.89552714064234
 -13.224813143152186 166.75235485431733 -3.785512444144245 -52.74624729137174 -8.482982668012792 -121.5966344461461
 -60.64158957420845 -41.792064407875316 -11.177360166910606 -139.43082061241705 -13.06574596618798 139.6655668916661 -14.737914539809234 156.25740626405255
 -3.785512444216246 -52.74624729135175 -7.028775964475161 164.92781551077522 -10.314853891929944 -101.81713721841702
 -65.57025677760846 75.0361349143347 -7.425613063751482 -25.099755209873287 -9.295035458789712 -159.37388924343838 -11.283335906844385 -140.34804896977377
 -8.482982668047791 -121.59663444584608 -10.314853891909944 -101.817137217817 -6.078751560551502 132.4243777465785
83.2 -0.2130291986883593 -119.79753871296877 -60.47405102073572 116.7841480048022 -55.02599504972572 159.65009423630218 -54.44314788504571 136.10463671840222
 -57.30528986542572 -23.794560232097805 -59.895419344325724 -47.52359649087781 -66.03416329772573 68.3977535173522
 -60.474051020835724 116.7841480057022 -6.231877322393221 130.8908844292625 -8.444027488449313 -126.08462974474999 -10.613095691692553 -105.28880269950554
 -9.206002052451375 -162.06348126342064 -11.277450991743414 -142.76598623524455 -7.2028612319457475 -25.860511478594404
 -55.02599504969572 159.6500942347022 -8.444027488455315 -126.08462974464999 -12.72908326074563 172.09013359462173 -3.8771842605446425 -56.04551040946634
 -11.850102619545416 116.86384919414547 -13.256076228038552 135.29897820459533 -9.194026630822261 -163.11611637758094
 -54.44314788497572 136.10463671700217 -10.613095691702556 -105.28880269940554 -3.877184260568643 -56.04551040908634 -6.583090290848151 164.53315765732515
 -13.35804184898211 135.5576461426134 -14.973589051762396 151.8758086887083 -11.392105209610259 -143.63241000198073
 -57.30528986575572 -23.794560232707806 -9.206002052422374 -162.06348126362062 -11.850102619505416 116.86384919284546 -13.358041849042108 135.55764614011343
 -12.917443942967537 170.0495724305542 -3.8215442512146702 -55.312588349139325 -8.415031669790766 -125.17281011534044
 -59.89541934448572 -47.52359649448781 -11.277450991723413 -142.76598623584457 -13.256076228058554 135.2989782042953 -14.973589051812395 151.8758086876083
 -3.8215442511946702 -55.312588348629326 -6.7640885421509545 164.82371237662846 -10.453802262949576 -104.62152116666122
 -66.03416329831572 68.39775351938219 -7.202861231992751 -25.860511478564398 -9.194026630791257 -163.11611637728095 -11.392105209610259 -143.63241000198073
 -8.415031669962765 -125.17281011514045 -10.45380226300958 -104.6215211662612 -6.278786473458316 131.01190844091207
84.8 -0.2201370409331817 -121.21136655236144 -60.51151437722331 113.46781778102641 -55.025340591123296 155.5911554349264 -54.34029171664329 131.7454444840264
 -56.92841974904329 -27.9474865180736 -59.21953746217329 -53.017256298713576 -66.46312005301328 61.60192168175642
 -60.5115143771333 113.46781778122643 -6.456635793105186 129.49981140653136 -8.385938862806787 -129.60750452939124 -10.767675439398348 -107.9750472271443
 -9.095844726623186 -165.84605961172585 -11.381444918112573 -146.062874682052 -6.9726546033165615 -26.79570800866006
 -55.02534059114329 155.5911554338264 -8.385938862825784 -129.60750452939124 -12.373996074307858 174.56804904432104 -3.9209846149052745 -58.555481743246915
 -12.023548112806552 111.7395792331227 -13.459736562434244 131.05681762478835 -9.091376767942497 -166.85724500634373
 -54.3402917166033 131.74544448312642 -10.76767543950835 -107.9750472271443 -3.9209846148752736 -58.55548174341691 -6.337742439450743 164.1323893852794
 -13.560183650067009 131.3454209366614 -15.215541149684746 147.6208059168835 -11.50440536238198 -146.87624839335382
 -56.9284197491833 -27.94748652231358 -9.095844726588187 -165.84605961162583 -12.023548112756554 111.7395792307227 -13.56018365017701 131.34542093546145
 -12.576572704569474 172.79163282633874 -3.864055318549971 -57.84878295002152 -8.353509661174243 -128.752492332969
 -59.21953746239329 -53.017256304313584 -11.381444918032573 -146.06287468175202 -13.459736562524242 131.05681762298838 -15.215541149854745 147.62080591658355
 -3.8640553185659696 -57.84878295008152 -6.505926002637413 164.49743474050894 -10.603445628957012 -107.38498400639654
 -66.4631200536533 61.60192168672642 -6.972654603303563 -26.79570800875005 -9.091376768095497 -166.85724500624374 -11.504405362441979 -146.87624839265382
 -8.353509661116243 -128.75249233316902 -10.603445628937012 -107.38498400659655 -6.502025613056435 129.65152828199274
86.4 -0.2274395963407012 -122.60992884290529 -60.52537650904691 110.07551772489948 -55.02890472531692 151.54236115979947 -54.23382194186692 127.34312278349947
 -56.58986407355692 -32.024382654440544 -58.602094627506915 -58.32741937600054 -66.85508976963692 54.63684601841946
 -60.52537650921692 110.07551772649948 -6.704935940813127 128.17566366937572 -8.333995047258648 -133.13868652648304 -10.933686153027205 -110.61642699791776
 -8.98482415286449 -169.6353596109099 -11.49021508157475 -149.32785083969836 -6.738657867747574 -27.901254408076582
 -55.02890472510692 151.54236115989946 -8.33399504732965 -133.13868652628307 -12.009881490895397 176.56599909693256 -3.9706452943963204 -61.04159355778115
 -12.211872382319303 106.64820200960196 -13.674951561024617 126.94807649776227 -8.987140735543992 -170.60491938221898
 -54.23382194169692 127.34312278479945 -10.933686153067207 -110.61642699741776 -3.970645294394322 -61.04159355743115 -6.100419403931254 163.5439268250468
 -13.773805339203234 127.26817418719122 -15.46071315090228 143.49054434103937 -11.621127571790828 -150.08575111162568
 -56.58986407303692 -32.024382652620545 -8.98482415281449 -169.63535961120988 -12.211872382339305 106.64820200940198 -13.773805339243232 127.26817418579121
 -12.219872816163075 175.03232478799703 -3.9124112663105204 -60.35919727219597 -8.298765425241186 -132.33764034825353
 -58.60209462707692 -58.32741937340054 -11.490215081544754 -149.32785084009836 -13.674951561054618 126.94807649836225 -15.460713151052282 143.49054434053934
 -3.9124112662945216 -60.359197271865966 -6.256244649787882 163.97033055694794 -10.764986331091652 -110.10417182945687
 -66.85508977015692 54.63684601331947 -6.738657867800574 -27.901254408146578 -8.987140735386994 -170.60491938221898 -11.621127571670831 -150.0857511124257
 -8.298765425319184 -132.33764034775353 -10.764986331101651 -110.10417182885688 -6.748497416498537 128.35839705317667
88.0 -0.23495212441304034 -123.99458652045013 -60.518972864444294 106.60255346420904 -55.037756286864294 147.51056784600902 -54.12512652927429 122.90262547900905
 -56.28546202621428 -36.03118342833096 -58.03407277689429 -63.49300762309097 -67.20770762464429 47.497198002379044
 -60.51897286461429 106.60255346060906 -6.976814443570866 126.93538746862994 -8.288644905525732 -136.67897814124302 -11.11231624531271 -113.2070412358318
 -8.873091102127809 -173.43771846795372 -11.604785714280412 -152.56535555053426 -6.504052710863385 -29.171126189928355
 -55.03775628679428 147.51056785000904 -8.288644905535731 -136.678978141443 -11.646988286072093 178.1521146954163 -4.025658223065948 -63.508344028563506
 -12.414862803382004 101.59171553590028 -13.899956211398202 122.98217997639331 -8.881529392048842 -174.36556461549662
 -54.125126529444294 122.90262548090904 -11.112316245302708 -113.20704123613179 -4.0256582230909475 -63.50834402848349 -5.872311150678926 162.7847403486177
 -13.997040067067308 123.33557616286784 -15.706006415579107 139.48229370916644 -11.743306664535432 -153.26514434449186
 -56.28546202592429 -36.031183425950964 -8.87309110218181 -173.43771846755374 -12.414862803552003 101.59171553590028 -13.99704006735731 123.33557616276784
 -11.859415504631777 176.8375081733341 -3.966085915653141 -62.84880519676108 -8.251166445983868 -135.92925133097975
 -58.03407277679429 -63.49300761739098 -11.604785714310415 -152.56535555003424 -13.899956211618203 122.9821799766933 -15.706006415909105 139.48229370986647
 -3.9660859156241397 -62.84880519696108 -6.016307903215655 163.26175901084503 -10.939582469548611 -112.77370463813789
 -67.20770762285429 47.49719799413905 -6.504052710841385 -29.17112618985835 -8.88152939206184 -174.36556461469667 -11.743306664575435 -153.26514434379186
 -8.25116644590787 -135.92925133087977 -10.939582469508611 -112.77370463813789 -7.018181941340458 127.14963811950338
89.6 -0.24269118950278257 -125.36672633574624 -60.49528832389987 103.04720395465891 -55.05279565218987 143.5033779090489 -54.015355772109864 118.4293449289489
 -56.01192419141987 -39.971748762661115 -57.508503044059864 -68.54254524250109 -67.51847691090987 40.18540757363893
 -60.49528832402986 103.04720395382893 -7.272178440930578 125.7982771976391 -8.250331514724708 -140.22837618808921 -11.304685611647647 -115.7389159020456
 -8.760921047797993 -177.25835303350468 -11.726312997739436 -155.77796318626497 -6.271585720002028 -30.597974154386506
 -55.05279565186987 143.50337790724893 -8.250331514685707 -140.22837618828922 -11.291455666803094 179.39154204102752 -4.085633690284033 -65.96080767231751
 -12.632521894876852 96.57177119511523 -14.13292061229794 119.16918827987351 -8.774868802481468 -178.1444622241905
 -54.01535577175987 118.42934492744892 -11.304685611607646 -115.73891590244564 -4.085633690264031 -65.9608076722075 -5.654128984372533 161.86980573689206
 -14.227944716739774 119.55783052330182 -15.948232352605975 135.59212473288954 -11.872100621303606 -156.416749419433
 -56.01192419114987 -39.97174876425109 -8.760921047775991 -177.25835303310467 -12.632521894966855 96.57177119570524 -14.227944716909777 119.55783052490182
 -11.502720063292053 178.27296731656236 -4.024682668505965 -65.32311545338938 -8.211090440962979 -139.52751615039568
 -57.50850304362987 -68.54254524492109 -11.726312997669439 -155.77796318636496 -14.13292061223794 119.1691882804735 -15.948232352605974 135.59212473398955
 -4.024682668515963 -65.32311545371938 -5.78684005259235 162.38863065547503 -11.128347155617819 -115.38618014612085
 -67.51847691156988 40.1854075645489 -6.271585720042028 -30.59797415443651 -8.774868802520468 -178.14446222409052 -11.872100621343604 -156.416749419433
 -8.211090440926977 -139.5275161504957 -11.12834715561782 -115.38618014602085 -7.310912053230048 126.04464768292718
91.2 -0.2506748803887809 -126.72776664002096 -60.45692089164817 99.41041134903767 -55.07476931038818 139.52941211539763 -53.905450322808186 113.92927994759765
 -55.76658828165817 -43.84815449027235 -57.01991796310817 -73.49730824871236 -67.78501015453817 32.71290591073765
 -60.45692089082819 99.41041134682767 -7.59069235096025 124.78625431681704 -8.219487719810143 -143.7861951580324 -11.511837151271191 -118.20192582927521
 -8.648677843568466 178.89856551983826 -11.856069216147812 -158.96639497974732 -6.043616010582062 -32.173585722148
 -55.07476931011817 139.52941211509767 -8.219487719900142 -143.78619515753243 -10.94645616625306 -179.658443148655 -4.150317640993429 -68.40453600655911
 -12.865070207954885 91.58991738109808 -14.371866579300185 115.51991552835581 -8.66756475442177 178.05417079971565
 -53.90545032254818 113.92927994669766 -11.511837151301192 -118.20192582867523 -4.150317640999429 -68.4045360064791 -5.446220966146505 160.81186219067982
 -14.464415195011252 115.94576669129907 -16.184077548833162 131.81452393277297 -12.008773211911683 -159.54099806652934
 -55.76658828103817 -43.84815449612234 -8.648677843450466 178.89856551963825 -12.865070207804886 91.58991738081805 -14.464415194801251 115.94576669039908
 -11.153939071110475 179.39789741230027 -4.087950731161783 -67.78807447095704 -8.178918734587569 -143.13193279162135
 -57.019917962408186 -73.49730825290236 -11.856069216067812 -158.96639498024734 -14.371866579210186 115.51991552795583 -16.18407754862317 131.81452393177295
 -4.087950731134782 -67.78807447067705 -5.568164937571076 161.36520394584065 -11.332341809951052 -117.93208170301274
 -67.78501015371819 32.71290591725765 -6.0436160106030625 -32.173585722208 -8.667564754365767 178.05417079961566 -12.008773211901683 -159.54099806702936
 -8.178918734620567 -143.13193279112136 -11.332341809881054 -117.93208170291274 -7.626259032683852 125.06534116513316
92.8 -0.2589230932202955 -128.07916396248956 -60.40603251679455 95.69543254318633 -55.10426285694454 135.59860860673632 -53.79614634238454 109.40921947983634
 -55.54722883887454 -47.660997083813676 -56.56395877105454 -78.37339850443368 -68.00530528937455 25.101074084446317
 -60.40603251674455 95.69543254363634 -7.931641933593956 123.92406918761564 -8.19653254268853 -147.35116228021195 -11.7347195936608 -120.58363196306057
 -8.536782175453991 175.0298298804571 -11.995430013110127 -162.1294931446215 -5.822159781990278 -33.88923161972212
 -55.10426285756455 135.59860860683634 -8.196532542691529 -147.35116227971196 -10.613153444296628 -178.95022361858295 -4.21960402932335 -70.8454494807085
 -13.11295210751606 86.64781987425195 -14.614574083514604 112.04594354715768 -8.560071839501754 174.22709403628417
 -53.79614634261455 109.40921947983635 -11.7347195936008 -120.58363196246057 -4.21960402936835 -70.84544948041851 -5.248673920456092 159.62133497990814
 -14.704092873090842 112.51081648041777 -16.410084957915704 128.14194796896615 -12.154679716342862 -162.63641145283765
 -55.54722883868454 -47.66099708088368 -8.536782175371995 175.02982987995713 -13.112952107776062 86.64781987181195 -14.704092873490842 112.51081647841774
 -10.814904066550461 -179.73784864801317 -4.155796713884961 -70.2499582492836 -8.155030571356756 -146.74139262481518
 -56.56395877120454 -78.37339850125367 -11.995430013100126 -162.12949314632147 -14.614574083874608 112.0459435467577 -16.410084958175705 128.14194796776616
 -4.155796713827961 -70.2499582490936 -5.360324983000508 160.20305935210212 -11.552561191003047 -120.39959976853388
 -68.00530528982453 25.101074079786322 -5.822159782059276 -33.889231619362114 -8.560071839485754 174.22709403698414 -12.154679716342862 -162.63641145283765
 -8.155030571483753 -146.74139262371517 -11.552561190963047 -120.39959976683387 -7.963396153572509 124.23630966100635
94.4 -0.2674578884356204 -129.42242043534645 -60.344290933540144 91.9074046268037 -55.141672895560134 131.72253179969363 -53.687960319850134 104.87691161708368
 -55.35190710229014 -51.40975747366631 -56.13708894677015 -83.1832027664863 -68.17803195146014 17.381655407953684
 -60.344290934240135 91.90740462658368 -8.29376843932125 123.23937518259665 -8.181868286886656 -150.92149524976574 -11.974158617980148 -122.8690381025002
 -8.425684296591056 171.13310428326054 -12.145864790876724 -165.26415417114555 -5.60893041855008 -35.735927404906285
 -55.141672895080134 131.72253179479367 -8.181868286907656 -150.92149525006573 -10.29143714849024 -178.44589454476662 -4.293543184614224 -73.28973083050762
 -13.37684610633686 81.74746994742559 -14.858476680565023 108.75949689030989 -8.452866828318932 170.37194396791875
 -53.68796031970014 104.87691161573368 -11.974158618020144 -122.8690381026002 -4.293543184537226 -73.2897308306176 -5.061399997598905 158.30636784414318
 -14.944262009723307 109.26484205611929 -16.622654123121976 124.56433097224657 -12.311255894684155 -165.6995403820332
 -55.35190710266015 -51.409757477416306 -8.425684296694058 171.13310428276057 -13.376846106416862 81.7474699457456 -14.944262010103307 109.2648420559193
 -10.48595040841348 -179.09431253161128 -4.228292385444151 -72.71526366947046 -8.139798132113182 -150.35425079765395
 -56.13708894673014 -83.18320277035633 -12.145864791006725 -165.26415417194556 -14.858476680595018 108.7594968904099 -16.62265412326198 124.56433097364658
 -4.228292385329154 -72.71526366929044 -5.163179952830422 158.91118674744766 -11.789907289952822 -122.77437055341868
 -68.17803195236013 17.381655393413677 -5.608930418522082 -35.73592740469629 -8.452866828336932 170.37194396771872 -12.311255894694158 -165.69954038153318
 -8.139798131916182 -150.35425079705396 -11.789907289682821 -122.77437055371867 -8.320933926137744 123.58483348846251
96.0 -0.27630393161541744 -130.75909213693888 -60.27280838764307 88.05278725075155 -55.18715742804307 127.91467627104157 -53.58115603455309 100.34119289287155
