! Created with skrf 1.10.0 (http://scikit-rf.org).
# GHz S DB R 50.0 
!freq dBS11 angS11 dBS12 angS12 dBS13 angS13
! dBS21 angS21 dBS22 angS22 dBS23 angS23
! dBS31 angS31 dBS32 angS32 dBS33 angS33
!
120.0 -21.414205631421993 108.12265262127961 -3.398607832553142 -65.79310806607349 -3.3955551515371436 -65.78974535976349
 -3.398607832553144 -65.79310806607349 -6.339654409799214 20.045617137106955 -6.671343882863074 -142.61027831023418
 -3.3955551515371463 -65.78974535976347 -6.671343882864069 -142.61027831023438 -6.347797797805118 20.024911454620252
121.0 -21.745571233698364 107.10131110830886 -3.396582047342951 -66.37044216983945 -3.393518984273953 -66.36729890935942
 -3.3965820473429535 -66.37044216983944 -6.328338556648399 19.408451736267494 -6.684498063599873 -143.6490261080665
 -3.393518984273953 -66.36729890935942 -6.684498063599873 -143.6490261080665 -6.336504073099621 19.387556940270386
122.0 -22.090773463193973 106.0376790086882 -3.394636415592274 -66.94820642931009 -3.3915636083332763 -66.94528453168009
 -3.394636415592274 -66.94820642931008 -6.317306682923941 18.77486944848565 -6.6973659316082435 -144.68700486509044
 -3.3915636083332728 -66.94528453168009 -6.6973659316082435 -144.68700486509044 -6.32549348943612 18.75378845930642
123.0 -22.450837901562785 104.92634345420758 -3.392772449160692 -67.52639030973243 -3.3896905391976917 -67.52369164821243
 -3.3927724491606934 -67.52639030973242 -6.306551582417547 18.144762358392715 -6.709947549554689 -145.7242474836584
 -3.3896905391976917 -67.52369164821242 -6.709947549555684 -145.7242474836586 -6.314758832672565 18.123497935168533
124.0 -22.826899772644698 103.76093780456769 -3.3909916251374344 -68.10498304805539 -3.3879012576224343 -68.10250945355537
 -3.390991625137436 -68.10498304805539 -6.296066278738399 17.518023163385905 -6.722243030921341 -146.7607866523037
 -3.3879012576224343 -68.10250945355537 -6.722243030920349 -146.76078665230347 -6.3042931186519935 17.496577900395877
125.0 -23.220217286760874 102.53392814252378 -3.3892953849829293 -68.6839736578186 -3.386197208797931 -68.6817269204186
 -3.3892953849829306 -68.68397365780862 -6.28584402822815 16.894545131604215 -6.734252538609587 -147.79665486379366
 -3.386197208797931 -68.6817269204186 -6.734252538609635 -147.79665486379372 -6.294089596152902 16.872921454527035
126.0 -23.632186048666508 101.23634178310408 -3.3876851336885228 -69.26335093430664 -3.3845798015285213 -69.26133280472666
 -3.3876851336895224 -69.26335093430664 -6.275878323023685 16.27422206137401 -6.74597628378049 -148.83188443349226
 -3.3845798015285227 -69.26133280472666 -6.745976283779488 -148.83188443349226 -6.284141749962511 16.252422223463665
127.0 -24.064354066019874 99.85741941132136 -3.386162238949433 -69.84310345988617 -3.3830504074284313 -69.8413156509262
 -3.386162238949433 -69.84310345988618 -6.266162894239571 15.65694824213418 -6.757414524866865 -149.86650751901644
 -3.383050407428433 -69.8413156509262 -6.757414524865871 -149.8665075190162 -6.274443304092529 15.634974320168219
128.0 -24.518436398031945 98.38416592909076 -3.3847280303548426 -70.42321960939377 -3.381610360131843 -70.42166379739376
 -3.38472803035484 -70.42321960939378 -6.25669171531376 15.042618416546565 -6.768567566821462 -150.9005561413943
 -3.381610360131841 -70.42166379740377 -6.7685675668215115 -150.90055614139433 -6.264988225138564 15.020472306730687
129.0 -24.99632761470179 96.80076610504749 -3.383383798606592 -71.00368755582187 -3.3802609545285933 -71.00236538208189
 -3.383383798606592 -71.00368755582187 -6.247459005506771 14.431127743970428 -6.779435760598206 -151.93406220683116
 -3.3802609545285933 -71.00236538209191 -6.779435760597262 -151.93406220683102 -6.255770725816388 14.40881115772224
130.0 -25.500108731397447 95.08781883555115 -3.3821307947438513 -71.58449527606031 -3.3790034460178493 -71.58340834824033
 -3.3821307947438513 -71.58449527606031 -6.23845923359307 13.822371765199065 -6.79001950287076 -152.96705752967978
 -3.379003446017851 -71.58340834824033 -6.790019502869765 -152.96705752967955 -6.246785268671914 13.799886224717671
131.0 -26.0320426730509 93.22132727562742 -3.3809702293961346 -72.16563055683031 -3.3778390497801376 -72.16478045032031
 -3.380970229396136 -72.16563055683031 -6.229687121744899 13.216246368266654 -6.8003192360321565 -153.99957385762193
 -3.3778390497801376 -72.16478045032032 -6.8003192360321565 -153.99957385762193 -6.238026569992333 13.193593202025635
132.0 -26.594547801757034 91.17136051597825 -3.3799032720578444 -72.74708100079873 -3.3767689400698435 -72.74646926006871
 -3.3799032720578444 -72.74708100079873 -6.221137649639786 12.612647755506138 -6.810335448469128 -155.03164289646855
 -3.3767689400698426 -72.74646926007873 -6.81033544846918 -155.0316428964686 -6.229489603945386 12.589828093561966
133.0 -27.190131197790052 88.9002761873725 -3.3789310503758263 -73.32883403274896 -3.3757942495408293 -73.32846217270897
 -3.3789310503758263 -73.32883403274896 -6.212806058803176 12.011472411547636 -6.8200686751456185 -156.06329633777392
 -3.3757942495408253 -73.32846217270898 -6.820068675146612 -156.06329633777415 -6.221169606950414 11.988487180688628
134.0 -27.82124978935056 86.36036623145831 -3.378054649475724 -73.91087690601587 -3.374916068579722 -73.91074641323587
 -3.378054649475723 -73.91087690601587 -6.204687857212767 11.412617072450423 -6.8295194985211545 -157.09456588668004
 -3.3749160685797235 -73.91074641322588 -6.829519498521099 -157.09456588668002 -6.213062082314619 11.389466991186644
135.0 -28.49004399396585 83.49077357547257 -3.3772751112923896 -74.49319670892112 -3.374135444679389 -74.4933090429411
 -3.377275111292388 -74.49319670893111 -6.196778824197664 10.815978695759895 -6.838688549813176 -158.12548329198776
 -3.3741354446793883 -74.4933090429411 -6.838688549814117 -158.12548329198796 -6.205162805163819 10.792664269086849
136.0 -29.197848805165236 80.21356326649408 -3.3765934339412773 -75.07578037148639 -3.3734533818242745 -75.07613696602641
 -3.3765934339412764 -75.07578037148639 -6.189075015650218 10.221454431464956 -6.847576510663462 -159.1560803769721
 -3.373453381824276 -75.0761369660264 -6.847576510662467 -159.15608037697186 -6.1974678276883575 10.197975945501414
137.0 -29.944322453212703 76.42901261689562 -3.3760105711041932 -75.65861467213048 -3.372870839913192 -75.65921693626048
 -3.3760105711041923 -75.65861467213048 -6.181572769580644 9.628941593931092 -6.856184115198369 -160.1863890722371
 -3.372870839913192 -75.65921693625049 -6.856184115198314 -160.18638907223706 -6.18997348473728 9.605299110270288
138.0 -30.72593603111065 72.01073170909694 -3.375527431443736 -76.24168624462722 -3.3723887341987346 -76.24253556386721
 -3.3755274314437314 -76.24168624462722 -6.174268712063492 9.038337634565634 -6.864512152565585 -161.21644144963588
 -3.3723887341987364 -76.24253556386721 -6.864512152565585 -161.21644144963588 -6.182676399801644 9.014530984425773
139.0 -31.533453204357855 66.80260217653306 -3.375144878045332 -76.82498158505065 -3.3720079347643357 -76.82607932251064
 -3.375144878046332 -76.82498158505065 -6.16715976360407 8.449540115415278 -6.872561469948069 -162.24626975824967
 -3.3720079347643326 -76.82607932251064 -6.872561469948064 -162.24626975824992 -6.175573491425469 8.42556889357439
140.0 -32.34799541260143 60.62253260329754 -3.374863727885422 -77.4084870589639 -3.3717292660194227 -77.40983455631388
 -3.3748637278854208 -77.40848705896389 -6.160243145974581 7.8624466835008056 -6.88033297612015 -163.27590646165385
 -3.3717292660194182 -77.4098345563139 -6.880332976121146 -163.27590646165407 -6.16866198008042 7.838310241926879
141.0 -33.13566760087113 53.2834240758075 -3.3746847513203138 -77.9921889086084 -3.371553506234311 -77.9937874870484
 -3.3746847513203155 -77.9921889086084 -6.153516389559984 7.276955045936332 -6.8878276456011145 -164.3053842769749
 -3.3715535062343136 -77.9937874870484 -6.8878276456011145 -164.3053842769749 -6.16193939556882 7.252652487137824
142.0 -33.842273215042326 44.647743036642105 -3.37460867161542 -78.57607326023944 -3.371481387097422 -78.57792422143945
 -3.374608671615418 -78.57607326023944 -6.146977341280397 6.692962945850169 -6.895046523437875 -165.3347362160589
 -3.371481387097419 -78.57792422143945 -6.895046523437875 -165.3347362160589 -6.155403584988983 6.668493115931732
143.0 -34.393158863553005 34.72761588379733 -3.3746361644896683 -79.16012613159458 -3.3715135933036717 -79.16223075844457
 -3.374636164489667 -79.16012613159458 -6.140624173150701 6.110368139116629 -6.901990730704809 -166.3639956280717
 -3.371513593304667 -79.16223075844457 -6.901990730704811 -166.36399562807145 -6.14905272136032 6.085729620498182
144.0 -34.70671427691949 23.803268000670823 -3.3747678576992106 -79.744333439371 -3.371650762180212 -79.746692996771
 -3.374767857699209 -79.744333439371 -6.134455391540722 5.529068371868029 -6.9086614707876715 -167.39319624425033
 -3.3716507621802103 -79.746692996771 -6.908661470788666 -167.3931962442506 -6.1428853129334495 5.504259475630519
145.0 -34.724727899170745 12.459136094339755 -3.375004330641303 -80.32868100687877 -3.3718934833363026 -80.33129674235876
 -3.3750043306423017 -80.32868100687877 -6.128469847211146 4.948961358968751 -6.915060036512031 -168.42237222463058
 -3.3718934833353016 -80.33129674235875 -6.915060036512022 -168.42237222463106 -6.136900213303989 4.9239801168128485
146.0 -34.442830464752845 1.433184290141995 -3.3753461139947643 -80.91315457170491 -3.372242298348767 -80.91602771595488
 -3.3753461139947616 -80.91315457170491 -6.1226667462212845 4.36994476337932 -6.921187818222014 -169.45155820677962
 -3.372242298348765 -80.91602771595488 -6.921187818222014 -169.45155820677962 -6.131096632391343 4.34478891915374
147.0 -33.913054048996244 -8.654483578846985 -3.3757936893824896 -81.49773979347601 -3.372697700486489 -81.50087156079601
 -3.375793689383488 -81.49773979347601 -6.117045661814996 3.791916176680758 -6.927046312922204 -170.48078935636656
 -3.3726977004864898 -81.50087156079601 -6.927046312922202 -170.4807893563668 -6.125474148396154 3.766583177453882
148.0 -33.215829968957316 -17.47895698509327 -3.376347489073515 -82.08242226172406 -3.373260134458514 -82.08581385028405
 -3.376347489073515 -82.08242226172406 -6.111606547360414 3.214773100798172 -6.932637134559281 -171.51010142040644
 -3.373260134458514 -82.08581385028405 -6.932637134559281 -171.51010142040644 -6.120032720842873 3.189260087425763
149.0 -32.42804647556392 -24.996714451641882 -3.377007895701044 -82.66718750376334 -3.3739299962020475 -82.67084009575333
 -3.3770078957010456 -82.66718750376334 -6.10634975050739 2.63841293119943 -6.937962025604929 -172.53953078181962
 -3.3739299962020457 -82.67084009575333 -6.937962025605926 -172.5395307818199 -6.1147727048229665 2.6127167283448927
150.0 -31.607019132735743 -31.331128075218857 -3.377775242028827 -83.25202099261304 -3.3747076327048235 -83.25593575423304
 -3.377775242028825 -83.25202099261304 -6.1012760286716965 2.0627329418063347 -6.943022870070856 -173.5691145171539
 -3.3747076327048253 -83.25593575424303 -6.9430228700709185 -173.56911451715393 -6.109694866599411 2.036850047385961
151.0 -30.789252767142457 -36.66658010057316 -3.378649810729441 -83.83690815509271 -3.3755933418654385 -83.84108623631273
 -3.378649810729443 -83.83690815509271 -6.096386566022611 1.4876302720061623 -6.947821708126659 -174.59889045502888
 -3.375593341865442 -83.84108623631273 -6.947821708126659 -174.59889045502888 -6.104800400708527 1.4615568459776562
152.0 -29.995408823806166 -41.18773489988551 -3.379631834204468 -84.42183437977714 -3.3765873723824646 -84.42627691389714
 -3.379631834204468 -84.42183437977714 -6.091682992126318 0.913001916121481 -6.952360752485227 -175.62889723805296
 -3.3765873723824664 -84.42627691389715 -6.952360752485227 -175.62889723805296 -6.100090948738651 0.886733768578667
153.0 -29.235819081258 -45.054889830816975 -3.3807214944314956 -85.00678502518574 -3.3776899236874938 -85.01149312813573
 -3.380721494431491 -85.00678502518574 -6.08716740245319 0.33874471590813554 -6.9566424067989985 -176.65917438549744
 -3.3776899236874907 -85.01149312813573 -6.9566424067989985 -176.65917438549744 -6.0955686199963335 0.3122772944578912
154.0 -28.514642421052248 -48.39856031188259 -3.381918922837564 -85.59174542782368 -3.378901145911563 -85.5967201972537
 -3.3819189228375626 -85.59174542782368 -6.082842380983699 -0.23524464316187368 -6.960669286275217 -177.68976235769958
 -3.3789011459115614 -85.5967201972537 -6.960669286276213 -177.68976235769986 -6.091236014274024 -0.26191626687205993
155.0 -27.832563570113365 -51.32197431432683 -3.3832242002049617 -86.17670091044161 -3.3802211398889606 -86.18194342434161
 -3.3832242002049604 -86.17670091044161 -6.078711025110881 -0.8090696311973017 -6.964444240788497 -178.72070262288597
 -3.380221139888959 -86.18194342434161 -6.964444240789494 -178.72070262288625 -6.087096246951496 -0.8359507757830753
156.0 -27.18842203484752 -53.90586228639265 -3.384637356608215 -86.76163679017874 -3.381649957200214 -86.76714810523875
 -3.3846373566082164 -86.76163679017874 -6.074776973178143 -1.3828338675754388 -6.967970380808058 -179.7520377235266
 -3.381649957200215 -86.76714810523875 -6.967970380808058 -179.7520377235266 -6.083152976739569 -1.4099302571847196
157.0 -26.580156045060022 -56.213248517002604 -3.3861583713767915 -87.34653838678776 -3.383187600248791 -87.35231953628775
 -3.38615837137679 -87.34653838678776 -6.0710444349077 -1.9566411078461008 -6.97125110646564 179.2161886557678
 -3.383187600248788 -87.35231953628775 -6.97125110646564 179.2161886557678 -6.079410436363041 -1.9839588884378272
158.0 -26.00533422079677 -58.29350231597389 -3.387787173087516 -87.93139103089642 -3.3848340223885205 -87.93744302209643
 -3.387787173087518 -87.93139103089642 -6.067518225097125 -2.530595222354217 -6.974290140184984 178.18393162136502
 -3.384834022388517 -87.93744302209643 -6.974290140184984 178.18393162136502 -6.075873466522868 -2.558140979026218
159.0 -25.46144659688892 -60.1855364951204 -3.389523639582122 -88.51618007229435 -3.38658912807312 -88.52250388323435
 -3.389523639581122 -88.51618007229435 -6.064203800963384 -3.104800164681505 -6.977091563294968 177.15114500409356
 -3.386589128074121 -88.52250388323435 -6.977091563294973 177.15114500409413 -6.072547553553677 -3.1325809401850853
160.0 -24.94605754039293 -61.92025604104382 -3.391367598013844 -89.10089088816933 -3.3884527730598437 -89.10748746382934
 -3.391367598014843 -89.10089088816933 -6.061107303561826 -3.6793599276562894 -6.9796598571548945 176.11778129621675
 -3.3884527730608465 -89.10748746382934 -6.979659857155892 176.11778129621646 -6.069438871196677 -3.707383242118491
161.0 -24.456880371332698 -63.52240858442959 -3.3933188249286084 -89.68550889148283 -3.39042476464561 -89.69237913912283
 -3.39331882492861 -89.68550889147284 -6.058235603769969 -4.254378484155927 -6.981999949370598 175.0837915912884
 -3.39042476464561 -89.69237913912283 -6.981999949370662 175.08379159128836 -6.0665543269809055 -4.28265235613524
162.0 -23.991808203159756 -65.01197777736381 -3.3953770463503674 -90.27001953924909 -3.392504861943366 -90.27716432290909
 -3.3953770463503656 -90.27001953924909 -6.055596353371252 -4.829959709452683 -6.984117265741514 174.04912553027708
 -3.3925048619433644 -90.27716432290909 -6.984117265742512 174.04912553027677 -6.063901613766669 -4.85849267830209
163.0 -23.54892082181573 -66.40523417310861 -3.397541937919446 -90.85440834094653 -3.394692776207445 -90.86182847481652
 -3.3975419379194443 -90.85440834094653 -6.053198041840206 -5.406207280751251 -6.9860177887295185 173.01373125658412
 -3.394692776207448 -90.86182847482654 -6.986017788730584 173.0137312565838 -6.061489267043828 -5.435008430484825
164.0 -23.12647894004714 -67.71553142019798 -3.3998131250292003 -91.43866086689819 -3.3969881711871985 -91.44635710754818
 -3.3998131250291985 -91.43866086689819 -6.051050059473225 -5.983224549272574 -6.987708123245552 171.97755538147274
 -3.3969881711871968 -91.44635710754818 -6.987708123245552 171.97755538147274 -6.0593267286615715 -6.012303533869208
165.0 -22.722912273949913 -68.95391326350165 -3.4021901830037566 -92.02276275666757 -3.399390663532755 -92.0307357938276
 -3.4021901830037566 -92.02276275666757 -6.049162767614496 -6.561114378616779 -6.989195570766138 170.94054296647263
 -3.399390663532756 -92.0307357938276 -6.989195570766138 170.94054296647263 -6.057424417723574 -6.5904814488666865
166.0 -22.336805067177217 -70.12957961590169 -3.40467263728839 -92.60669972763924 -3.401899823237388 -92.61495017324924
 -3.4046726372883884 -92.60669972763924 -6.047547576759776 -7.139978942088985 -6.99048821284196 169.90263752518086
 -3.401899823237388 -92.61495017324924 -6.990488212842959 169.90263752518055 -6.05579380946841 -7.169644973984794
167.0 -21.96688105925638 -71.25024713128639 -3.4072599636650147 -93.19045758348969 -3.4045151741220145 -93.19898595891969
 -3.4072599636650174 -93.19045758348969 -6.046217033396553 -7.71991947008937 -6.991595005248907 168.86378105273525
 -3.404515174122016 -93.19898595891969 -6.991595005248907 168.86378105273525 -6.0544475229908015 -7.749895994726931
168.0 -21.611988954795205 -72.32243030909436 -3.4099515884873046 -93.77402222286734 -3.4072361943643026 -93.78282894378735
 -3.4099515884873033 -93.77402222286734 -6.04518491651001 -8.301035936668113 -6.992525884141736 167.82391408978822
 -3.4072361943643044 -93.78282894378735 -6.992525884141736 167.82391408978822 -6.0533994187690885 -8.331335171589402
169.0 -21.271088911408533 -73.35166232269539 -3.412746888933084 -94.35737964817935 -3.410062317066082 -94.36646500673936
 -3.4127468889340835 -94.35737964817935 -6.044466344751144 -8.883426671902741 -6.993291885802744 166.78297583173435
 -3.4100623170650812 -94.36646500673935 -6.993291885802741 166.78297583173375 -6.052664706984529 -8.914061553820364
170.0 -20.943240258777777 -74.34266979676134 -3.4156451932843375 -94.94051597440256 -3.4129929308573397 -94.94988011837256
 -3.4156451932843375 -94.94051597440256 -6.044077895265453 -9.467187884175143 -6.993905281674633 165.74090429510866
 -3.412992930857338 -94.94988011837256 -6.993905281674633 165.74090429510866 -6.05226006769473 -9.498172102852312
171.0 -20.627590491808668 -75.29951214172618 -3.4186457812134647 -95.52341743821775 -3.416027380555465 -95.53306034633776
 -3.4186457812134656 -95.52341743821775 -6.044037735222004 -10.052413072535822 -6.994379730616171 164.69763655689997
 -3.416027380555464 -95.53306034633776 -6.994379730615473 164.69763655680012 -6.052203783887478 -10.0837611054409
172.0 -20.323365490999254 -76.22569341015556 -3.421747884103281 -96.10607040725444 -3.4191649678432823 -96.11599186036446
 -3.4217478841042794 -96.10607040725444 -6.044365767043248 -10.639192305508818 -6.994730450468078 163.65310908645074
 -3.4191649678432787 -96.11599186036446 -6.994730450467076 163.65310908645074 -6.052515888476506 -10.670919452946082
173.0 -20.02986087908016 -77.12425269647096 -3.424950685381907 -96.68846138963498 -3.4224049519939093 -96.698660936645
 -3.424950685381907 -96.68846138963498 -6.045083788227029 -11.227611337208337 -6.99497441119021 162.60725819468638
 -3.4224049519939093 -96.69866093665499 -6.994974411190281 162.60725819468635 -6.05321832614901 -11.259733757280896
174.0 -19.746434405098785 -77.99783766470509 -3.428253320876607 -97.27057704386695 -3.4257465506246048 -97.28105396182693
 -3.428253320876605 -97.27057704386694 -6.046215666479926 -11.817750525700493 -6.995130551964981 161.56002063035788
 -3.4257465506246065 -97.28105396182694 -6.995130551964981 161.56002063035788 -6.054335130813978 -11.85028526811233
175.0 -19.472499244053417 -78.8487647196255 -3.431654879207389 -97.85240418916163 -3.4291889404793894 -97.86315743616163
 -3.431654879207391 -97.85240418916165 -6.047787530513098 -12.409683510886822 -6.9952200247377005 160.51133436096262
 -3.4291889404793925 -97.86315743616163 -6.995220024736701 160.51133436096293 -6.055892619081446 -12.442648548706677
