! Created with skrf 1.10.0 (http://scikit-rf.org).
# GHz S DB R 50.0 
!freq dBS11 angS11 dBS21 angS21 dBS12 angS12 dBS22 angS22
120.0 -0.6654075678907052 174.4892304818908 -47.500746964707616 -109.56602910842983 -47.50074696480762 -109.56602910802982 -0.6616849967073444 169.62607180801632
121.0 -0.6803025608057783 173.1819573732452 -47.042103120899995 -111.52274801757879 -47.04210312083 -111.52274801837878 -0.675863650221771 168.28458882832558
122.0 -0.6960325917488174 171.85682723859244 -46.54623499301073 -113.54095427521277 -46.54623499303072 -113.54095427551276 -0.6908287605013751 166.92664634044348
123.0 -0.7126963546948215 170.51209061960563 -46.011030575053425 -115.62500969652089 -46.011030575213425 -115.62500969642089 -0.7066743817083185 165.55057853221214
124.0 -0.7304092084195142 169.1458107271716 -45.434323648554994 -117.77973904161577 -45.43432364851499 -117.77973904091574 -0.7235104757299292 164.15454112319438
125.0 -0.7493069868721507 167.75583312419394 -44.81388850540098 -120.01055983164558 -44.81388850541097 -120.01055983124556 -0.7414665541042241 162.73648246432512
126.0 -0.7695509154052399 166.33974920303618 -44.147430387623444 -122.3236492545486 -44.14743038755343 -122.32364925404862 -0.7606963777548859 161.29410872281764
127.0 -0.7913340238946183 164.894851962019 -43.432570636950885 -124.72615707611405 -43.432570636950885 -124.72615707591406 -0.7813840884660597 159.824841728191
128.0 -0.8148896115654793 163.4180822091969 -42.666825521414886 -127.22647626682944 -42.666825521334886 -127.22647626802944 -0.8037523029401293 158.3257676969232
129.0 -0.840502561670231 161.90596286214188 -41.84757772316365 -129.83458712126892 -41.847577723083646 -129.8345871206689 -0.8280729329405924 156.79357462330927
130.0 -0.868524671049229 160.35451850984813 -40.97203955623506 -132.56249668499154 -40.972039556215066 -132.56249668449158 -0.8546818457965065 155.2244756472862
131.0 -0.8993957213015579 158.75917690680768 -40.03720717889517 -135.42480434004304 -40.037207178925165 -135.42480433964306 -0.8839990165271566 153.6141152520214
132.0 -0.933672891779408 157.11464879256894 -39.03980547615032 -138.4394377713482 -39.03980547615032 -138.4394377717482 -0.9165566576530372 151.95745490060324
133.0 -0.9720724944094219 155.41478283198106 -37.97622411404628 -141.62862358071587 -37.97622411406629 -141.62862358051586 -0.953039130425465 150.2486351461259
134.0 -1.0155302230432413 153.6523946508979 -36.842446929026046 -145.02018677211257 -36.84244692898604 -145.02018677231257 -0.9943405531594027 148.4808134018625
135.0 -1.065289706680106 151.81907537755978 -35.63398013712154 -148.64931831385067 -35.633980137131545 -148.6493183141507 -1.04164945178308 146.6459828345311
136.0 -1.1230350606465687 149.90500143791365 -34.345791514015446 -152.56101735948067 -34.34579151402544 -152.56101735938068 -1.096575419843666 144.7347936817772
137.0 -1.1910928500598377 147.89880649438626 -32.97228607911733 -156.81351435173997 -32.97228607909733 -156.81351435173997 -1.1613419918944776 142.73643610550798
138.0 -1.2727446817574255 145.78766815675974 -31.507370802832163 -161.48312344499485 -31.50737080280217 -161.48312344519485 -1.2390849007062186 140.63873203981274
139.0 -1.372716139644532 143.55797585435198 -29.94471540663641 -166.67115722258706 -29.94471540664641 -166.67115722248704 -1.3343179604534612 138.4287888147293
140.0 -1.497940598308197 141.19744399840886 -28.27842640391262 -172.51371370903888 -28.27842640393262 -172.51371370903888 -1.4536593178082016 136.0950439336095
141.0 -1.6587189349016775 138.7006855299765 -26.50457009700295 -179.19508959429135 -26.50457009699295 -179.19508959429135 -1.6069301505751703 133.6326281326803
142.0 -1.8703119361884857 136.0828361521016 -24.624392423978897 173.03548843619376 -24.624392423988898 173.03548843629372 -1.8086524255728902 131.05641543927157
143.0 -2.154431781040228 133.41097504280447 -22.650752878398244 163.84847231457468 -22.650752878408245 163.84847231457468 -2.0794182970972233 128.4309636854179
144.0 -2.5378085294606727 130.8698110450415 -20.619893695877135 152.83779545891693 -20.619893695887136 152.83779545871693 -2.4444159284456206 125.9326362232312
145.0 -3.03830223157492 128.86716666234682 -18.60911267423054 139.5918214712038 -18.609112674230545 139.5918214712038 -2.9201070378492187 123.94794380305548
146.0 -3.619835505047964 128.06920371124994 -16.750866992294103 123.91300041086319 -16.750866992284102 123.91300041086319 -3.471837668867856 123.10234463518815
147.0 -4.128578317561425 128.94804159421054 -15.21116844402112 106.18991826692196 -15.21116844402112 106.18991826692195 -3.9552546625994345 123.83273659941572
148.0 -4.359387636388307 130.74108984399516 -14.102363591677436 87.57448038418866 -14.102363591687435 87.57448038418866 -4.179342109867889 125.42794327583
149.0 -4.306743174380755 131.68888969460946 -13.393861743318903 69.47046385168957 -13.393861743328904 69.47046385168957 -4.137530990908329 126.2526007162607
150.0 -4.172362483854393 130.92396358682726 -12.938433936698093 52.71590025099583 -12.93843393669809 52.715900250935825 -4.016284132776523 125.48405906262019
151.0 -4.128793470559632 128.79173766246768 -12.577963260146149 37.35532543639208 -12.577963260146149 37.355325436372084 -3.978015668901323 123.43041287898336
152.0 -4.249558055977045 125.94790938513945 -12.208703741879734 22.961666608210145 -12.208703741889737 22.96166660824014 -4.093363825573796 120.70590650013962
153.0 -4.559171862982586 122.9674007261416 -11.787577546173637 8.975901461255535 -11.787577546183636 8.975901461272533 -4.385784098593561 117.85828979440514
154.0 -5.065961832962934 120.41783424258252 -11.318312181031985 -5.1145826241484675 -11.318312181021984 -5.114582624132467 -4.861789646847368 115.42822725743758
155.0 -5.7532221673179045 119.0231689799988 -10.838602231102259 -19.688597837613877 -10.838602231092256 -19.688597837513875 -5.50265249001348 114.09163753934826
156.0 -6.529724783748749 119.67236599685286 -10.408395027393295 -34.92064447628472 -10.408395027393295 -34.920644476324725 -6.2199953424449985 114.64988019757618
157.0 -7.169044528992526 122.88997792348944 -10.09249091554441 -50.72202331564655 -10.09249091554441 -50.72202331571654 -6.8061617811795045 117.5369976813471
158.0 -7.3813111432265535 127.70763192253388 -9.93572408440868 -66.75213361142235 -9.935724084398679 -66.75213361150237 -7.004498753827054 121.85339629920307
159.0 -7.0982077797016405 131.7087061199506 -9.942078952997207 -82.5516125362531 -9.942078953007208 -82.5516125363531 -6.7548387066883375 125.45256820034454
160.0 -6.556136095346874 133.2166837980755 -10.073850766874822 -97.74235064997671 -10.073850766874822 -97.74235064992673 -6.263716670190672 126.81623257540461
161.0 -6.022311875305279 132.2775791161464 -10.271134665574579 -112.16179517428048 -10.271134665574577 -112.16179517438047 -5.772270707031433 125.93458712971376
162.0 -5.633733401508687 129.68051617225328 -10.475214399080045 -125.87059182053818 -10.47521439909004 -125.87059182053815 -5.410302001224583 123.49903655671967
163.0 -5.43037312107664 126.1592674227006 -10.642797134602741 -139.08401878888773 -10.642797134612735 -139.08401878898775 -5.218999840023639 120.18449019359115
164.0 -5.414950241014717 122.23493584196035 -10.75057240886676 -152.09722791211826 -10.750572408866761 -152.09722791211829 -5.203234693771935 116.4848928712471
165.0 -5.582906085886584 118.30958443891349 -10.795376165592199 -165.23241466703755 -10.795376165592199 -165.23241466703755 -5.359348937039847 112.78779792045064
166.0 -5.927411026206171 114.8005828699242 -10.794079899208423 -178.80081204092258 -10.794079899218422 -178.80081204112253 -5.680028059500328 109.49400185558356
167.0 -6.423955046983281 112.2501964445465 -10.784126841652986 166.94038939685908 -10.784126841642983 166.94038939675906 -6.139952969290371 107.11336553941965
168.0 -6.991844504706025 111.30854800587993 -10.8222946623701 151.8528570027787 -10.822294662370098 151.85285700267872 -6.660901602010984 106.23717433595672
169.0 -7.451063347376564 112.33970372955777 -10.976485356886464 135.99817424969135 -10.976485356896465 135.99817424969135 -7.075664900677455 107.16797723988857
170.0 -7.570522623501386 114.60409691140418 -11.306619193785423 119.68600170301374 -11.306619193775425 119.68600170301374 -7.176240461118876 109.20268280348722
171.0 -7.2733110096816596 116.18323081509372 -11.840498665157442 103.41518480002965 -11.84049866515744 103.41518479992962 -6.895325536866425 110.60267160348097
172.0 -6.7305568961031845 115.53849887594777 -12.56167735525764 87.70036602831524 -12.561677355247639 87.70036602831524 -6.386544583414229 109.9676112747071
173.0 -6.170540351146484 112.51703507338667 -13.420106008165344 72.89529047387465 -13.420106008165344 72.89529047385464 -5.858062069746741 107.13163146615898
174.0 -5.721024885666405 107.7265233089775 -14.35561862317725 59.12846898501987 -14.35561862318725 59.128468985099865 -5.430267604509744 102.63532630774064
175.0 -5.415109320290603 101.78681628531277 -15.31679438718671 46.349934951546416 -15.31679438718671 46.34993495157642 -5.136859670635752 97.05050889906624
176.0 -5.24181253305088 95.09531837753505 -16.268363650853406 34.41480742300179 -16.268363650863407 34.41480742304179 -4.969648584225342 90.75138360826874
177.0 -5.177752333879575 87.8531202455932 -17.19051288343004 23.149731453446694 -17.19051288342004 23.149731453416685 -4.908127158981701 83.92968643316878
178.0 -5.199471002610673 80.13766028760163 -18.075197161097524 12.390073718314365 -18.075197161097527 12.390073718344368 -4.931471919119788 76.6589582314817
179.0 -5.2863427634700155 71.95892443392371 -18.922379844145482 1.9956787833829275 -18.922379844145482 1.9956787833605274 -5.021602341782151 68.94591604206978
180.0 -5.420035089645841 63.29518158192816 -19.73713826507733 -8.144874918389092 -19.73713826508733 -8.144874918378093 -5.162819228775196 60.76309938317593
181.0 -5.58307354722324 54.116051340443285 -20.52765373391109 -18.114976861199995 -20.52765373391109 -18.11497686121 -5.340424764200136 52.06941439934503
182.0 -5.757519986886029 44.39973904610855 -21.30384485132784 -27.972335186597903 -21.30384485131784 -27.9723351865979 -5.539248155054466 42.825065454687426
183.0 -5.9242654142590805 34.148270990336584 -22.07640522893755 -37.75162843230936 -22.07640522893755 -37.75162843217936 -5.742502837953992 33.00513226865826
184.0 -6.06331047751719 23.401481954514033 -22.856077147310643 -47.46709330901018 -22.856077147310643 -47.467093309060175 -5.931331270981824 22.613743753891786
185.0 -6.155270404092209 12.247485973480806 -23.653064300679063 -57.11510285322941 -23.653064300669058 -57.11510285317941 -6.085425189004691 11.69822764506681
186.0 -6.183966849870572 0.825130087244687 -24.476542691397675 -66.67690940330016 -24.476542691397675 -66.67690940336016 -6.184989405081352 0.3596794850779964
187.0 -6.139362782169071 -10.685754483124146 -25.334266779420197 -76.12168895498975 -25.334266779410196 -76.12168895475975 -6.2138554732346005 -11.245781849896753
188.0 -6.019622596964046 -22.086360204573154 -26.23228871040682 -85.40990646441949 -26.23228871041682 -85.40990646437949 -6.162815778411429 -22.919858602733072
189.0 -5.831253981231487 -33.187033655835805 -27.174812978509834 -94.49688175390774 -27.17481297851983 -94.49688175409774 -6.031739114605169 -34.44831945755229
190.0 -5.587189768388238 -43.8318291043238 -28.164199879097588 -103.33632038548403 -28.16419987908759 -103.33632038538404 -5.8293640953747445 -45.632589423383074
191.0 -5.303670758819369 -53.91203977336978 -29.201113556571254 -111.88351892814691 -29.201113556591256 -111.88351892834692 -5.5708228595943545 -56.31532956025603
192.0 -4.9971584021586954 -63.367327595311714 -30.284791044936764 -120.0979742438519 -30.28479104490677 -120.09797424365185 -5.274057761664532 -66.39247768525334
193.0 -4.682138201780966 -72.17815284599249 -31.413393888747976 -127.94521109421322 -31.413393888717973 -127.9452110941132 -4.9565389868205 -75.81165718824242
194.0 -4.370041434889561 -80.35468322803543 -32.584397819721715 -135.39776118285712 -32.584397819671715 -135.3977611826571 -4.633125117985292 -84.56208279327478
195.0 -4.069065053854467 -87.92606796424629 -33.79497919000022 -142.4353430064157 -33.79497918997021 -142.43534300691573 -4.315170363375121 -92.66185849510539
196.0 -3.784525176165708 -94.93192641128064 -35.04236711919004 -149.0443768411142 -35.04236711919004 -149.0443768405142 -4.010543612546366 -100.14655918640605
197.0 -3.5194315807881944 -101.41639133202898 -36.3241438309636 -155.21700954016364 -36.32414383088359 -155.21700953976367 -3.72413572023699 -107.06063512848226
198.0 -3.2750847396412484 -107.42431290042086 -37.63848893949095 -160.9498215573405 -37.63848893946095 -160.94982155724048 -3.4585302378942457 -113.45166392161096
199.0 -3.051597463579066 -112.99903483481098 -38.984374244423236 -166.242354786188 -38.98437424453324 -166.24235478518798 -3.2146497329450474 -119.36684973454479
200.0 -2.8483085913824997 -118.18121457424112 -40.361723193771084 -171.09554745278598 -40.36172319373108 -171.09554745288597 -2.9922957556727017 -124.85107939642575
