! Created with skrf 1.10.0 (http://scikit-rf.org).
# GHz S DB R 50.0 
!freq dBS11 angS11 dBS12 angS12 dBS13 angS13
! dBS14 angS14
! dBS21 angS21 dBS22 angS22 dBS23 angS23
! dBS24 angS24
! dBS31 angS31 dBS32 angS32 dBS33 angS33
! dBS34 angS34
! dBS41 angS41 dBS42 angS42 dBS43 angS43
! dBS44 angS44
!
120.0 -7.610529396393467 135.93887645130116 -6.974831277636916 -58.3842674639858 -4.160602147548917 -119.62201269016579 -8.936322109656917 -92.0175936782658
 -6.974831277636916 -58.3842674639858 -6.944095995193921 127.19622225642108 -9.33513015190194 -95.22809269535225 -4.326398864748778 -123.25708930670288
 -4.160602147548915 -119.62201269016579 -9.335130151902971 -95.22809269535227 -7.137854194365044 124.74806533458937 -7.171978835543166 -60.404550740677024
 -8.936322109656917 -92.0175936782658 -4.326398864748778 -123.25708930670288 -7.171978835543197 -60.4045507406871 -7.0152314279693515 126.27311026425149
121.0 -7.747433486785862 134.95524004451445 -6.923915794430354 -58.74165904514564 -4.116593451713355 -120.83346254218563 -9.008354600063354 -92.93174465000565
 -6.9239157944303535 -58.74165904514565 -7.053003467686755 126.20057524308113 -9.416455354512593 -96.12609870938586 -4.28358092726661 -124.47104708546674
 -4.116593451713353 -120.83346254218563 -9.416455354512593 -96.12609870938586 -7.260542764605625 123.67531623161476 -7.11697524545942 -60.749728740424665
 -9.008354600063354 -92.93174465000565 -4.28358092726661 -124.47104708546674 -7.11697524545942 -60.749728740424665 -7.129323413563232 125.24917614918333
122.0 -7.8909238713612515 133.95447516242518 -6.870973857302017 -59.11119711592853 -4.072839056435018 -122.05447670054852 -9.083774584241016 -93.85022144838852
 -6.870973857302013 -59.11119711592855 -7.166914855294317 125.19127345282664 -9.50142194907227 -97.02596099459268 -4.240902495986912 -125.69370841848566
 -4.072839056435014 -122.05447670054849 -9.50142194907227 -97.02596099459268 -7.389110174916125 122.58634423809968 -7.05971673662426 -61.10820561927613
 -9.083774584241018 -93.85022144837852 -4.240902495986898 -125.6937084184857 -7.0597167366242894 -61.1082056192762 -7.248753467103257 124.21070766135075
123.0 -8.041328083679794 132.93615265927244 -6.816067642170765 -59.493760747704584 -4.029396645599762 -123.2850951222746 -9.162773881772766 -94.7725110891746
 -6.816067642170767 -59.493760747704584 -7.286043339960208 124.16809696156014 -9.590233004638383 -97.92699046444616 -4.1984134246750875 -126.92511789022288
 -4.029396645599767 -123.2850951222746 -9.590233004638383 -97.92699046444616 -7.523830543074763 121.48081980930154 -7.000277804995509 -61.48094791586067
 -9.162773881772761 -94.7725110891746 -4.1984134246750875 -126.92511789022288 -7.000277804995509 -61.48094791586067 -7.373757918811843 123.15745502793114
124.0 -8.198995386069083 131.89981016875518 -6.759268875964077 -59.89021987677841 -3.9863251852940773 -124.52533935974843 -9.245552236320075 -95.69802093034842
 -6.759268875964079 -59.890219876778396 -7.410613486724761 123.13081513644576 -9.683099894761932 -98.8284005480992 -4.156164600989449 -128.16530425944183
 -3.9863251852940755 -124.52533935974843 -9.683099894761932 -98.8284005480992 -7.664994358790567 120.35839390743259 -6.938743609583503 -61.8689061850052
 -9.245552236320076 -95.69802093034842 -4.156164600989449 -128.16530425944183 -6.938743609583503 -61.8689061850052 -7.504586322077598 122.08915596096071
125.0 -8.36429876081047 130.8449458952815 -6.700658916278602 -60.30143021869826 -3.943684775073603 -125.77521151687826 -9.332317393922603 -96.62607107407825
 -6.700658916278602 -60.30143021869824 -7.5408620427222415 122.07918417307008 -9.780242321743321 -99.72929749357158 -4.114207809783959 -129.41427962925732
 -3.9436847750735997 -125.77521151687823 -9.780242321743321 -99.72929749357158 -7.812909791747847 119.21869408297069 -6.8752099509046705 -62.273009157824994
 -9.332317393922601 -96.62607107407825 -4.114207809784967 -129.41427962925738 -6.8752099509046705 -62.273009157824994 -7.64150243203326 121.00553285371761
126.0 -8.537637168267834 129.771011126055 -6.640328759707127 -60.72822804230317 -3.9015364804691237 -127.0346932482832 -9.423285147770125 -97.55588608788318
 -6.640328759707126 -60.72822804230317 -7.677038829416536 121.01294411270885 -9.881888285836927 -100.62866972222884 -4.0725955806272065 -130.6720386644806
 -3.901536480470126 -127.0346932482832 -9.881888285836885 -100.62866972222884 -7.967904160803041 118.06131972621412 -6.80978316468276 -62.69415783888771
 -9.423285147770127 -97.55588608788318 -4.0725955806272065 -130.6720386644806 -6.809783164683772 -62.69415783888746 -7.784785300530857 119.90628937332899
127.0 -8.719438118090544 128.67740120218778 -6.57837897543057 -61.17142485348828 -3.85994214647957 -128.30374481587828 -9.518679342837569 -98.48658597317828
 -6.578378975430569 -61.17142485348828 -7.819407743376444 119.93181525003848 -9.988273987177516 -101.52537612724088 -4.031381019543729 -131.9385578707756
 -3.85994214647957 -128.30374481587828 -9.988273987178559 -101.52537612724088 -8.130325591130534 116.88583633122086 -6.742579929022775 -63.13321960236947
 -9.518679342838567 -98.48658597317828 -4.031381019543723 -131.93855787077555 -6.742579929022771 -63.1332196023696 -7.934730506670304 118.7911063409587
128.0 -8.910160608642153 127.56344462898709 -6.51491956155295 -61.631802042475655 -3.8189641920639517 -129.58230421668566 -9.618731832411953 -99.41717629808568
 -6.514919561552949 -61.631802042475655 -7.9682478835476935 118.83549382733952 -10.099643645461356 -102.41813319384705 -3.9906176252689236 -133.21379494894458
 -3.8189641920639517 -129.58230421668566 -10.099643645461356 -102.41813319384705 -8.3005448910418 115.69176858089197 -6.673726984427445 -63.59102235065548
 -9.618731832411951 -99.41717629808568 -3.9906176252689236 -133.21379494894458 -6.673726984427445 -63.59102235065548 -8.091651545518557 117.65963677086106
129.0 -9.110298500777969 126.42838993202805 -6.450069722709214 -62.110105550657266 -3.778665385928213 -130.8702864010073 -9.72368237687821 -100.34653740170728
 -6.450069722709216 -62.110105550657266 -8.12385482614387 117.7236468927238 -10.21624921897738 -103.30550080300205 -3.9503590905286305 -134.49768823887206
 -3.778665385928215 -130.8702864010073 -10.21624921897738 -103.30550080300205 -8.478957686233532 114.47859202402167 -6.603360767278016 -64.06834879947718
 -9.723682376878212 -100.34653740170728 -3.9503590905286305 -134.49768823887206 -6.603360767278016 -64.06834879947718 -8.255881401735854 116.51149991695458
130.0 -9.32038440546991 125.27138977076365 -6.383957568494435 -62.60704061487563 -3.739108604216434 -132.1675825960556 -9.833778472974435 -101.27341255955564
 -6.3839575684944325 -62.60704061487564 -8.286542071933251 116.59590617997524 -10.33835000029962 -104.1858665620736 -3.910659089218494 -135.79015626783547
 -3.7391086042164328 -132.1675825960556 -10.33835000029962 -104.1858665620736 -8.665986856228633 113.24572306796387 -6.531626958620313 -64.56593095313741
 -9.833778472974434 -101.27341255955564 -3.910659089218494 -135.79015626783547 -6.531626958620313 -64.56593095313741 -8.427774339633142 115.34627414459531
131.0 -9.540994181076874 124.09148170161049 -6.316719733437603 -63.123266647896145 -3.7003565710626027 -133.47405975270613 -9.949275099007604 -102.19639498880615
 -6.316719733437603 -63.12326664789616 -8.456642695073628 115.45186083790514 -10.466212060468456 -105.05742848417637 -3.8715710506299548 -137.09109741892203
 -3.7003565710626 -133.47405975270615 -10.466212060468456 -105.05742848417637 -8.862085326388925 111.9925069463522 -6.458679951267886 -65.08444483161271
 -9.949275099007602 -102.19639498880615 -3.8715710506299548 -137.09109741892203 -6.458679951267886 -65.08444483161271 -8.60770794701764 114.16348841098923
132.0 -9.772752156137383 122.88756482594223 -6.248500920307807 -63.65939231306542 -3.662471583355808 -134.78956013344543 -10.070434358060806 -103.11391354954543
 -6.248500920307807 -63.65939231306543 -8.634511227750737 114.29104880885842 -10.600107506677613 -105.91817581887898 -3.8331479222970772 -138.40038973279957
 -3.662471583355808 -134.78956013344543 -10.600107506677613 -105.91817581887898 -9.067739279148721 110.71820324824222 -6.384682239439472 -65.62450550876451
 -10.070434358060806 -103.11391354954543 -3.8331479222970772 -138.40038973279957 -6.384682239439472 -65.62450550876451 -8.796085477008017 112.96261209306574
133.0 -10.016337218184638 121.65837135428704 -6.179453369701128 -64.21597085032579 -3.6255152214581288 -136.1139010590158 -10.197524996976131 -104.0242169807158
 -6.179453369701129 -64.2159708503258 -8.82052582094104 113.1129466107876 -10.740313509808367 -106.7658678105283 -3.7954419233175725 -139.7178908587602
 -3.6255152214581288 -136.1139010590158 -10.740313509808367 -106.7658678105283 -9.283471860568005 109.42196849618746 -6.309803736185941 -66.18666251690925
 -10.197524996976128 -104.0242169807158 -3.7954419233175725 -139.7178908587602 -6.309803736185941 -66.18666251690925 -8.993338540224876 111.74304284388852
134.0 -10.27248993954386 120.40243185346547 -6.109736259926729 -64.79349570781115 -3.58954804804573 -137.44687482875116 -10.330821772967731 -104.92535648725112
 -6.109736259926734 -64.79349570781115 -9.015090728800239 111.91695723068625 -10.887111047290574 -107.59801014087485 -3.7585042904766435 -141.04343816617828
 -3.5895480480457325 -137.44687482875116 -10.887111047290574 -107.59801014087485 -9.509847473282765 108.10283513384724 -6.2342210248909025 -66.77139566842284
 -10.330821772967733 -104.92535648725112 -3.7585042904766435 -141.04343816617828 -6.2342210248909025 -66.77139566842284 -9.199930209636797 110.50409208993707
135.0 -10.54202094876172 119.11803258617182 -6.039515042264998 -65.39239653020432 -3.554629297656996 -138.7882488318743 -10.470604633293998 -105.81516646857432
 -6.039515042264998 -65.39239653020432 -9.21863917272306 110.70239577266585 -11.040783292989824 -108.41182878836399 -3.7223850197886144 -142.37684902943542
 -3.554629297656996 -138.7882488318743 -11.040783292989824 -108.41182878836399 -9.74747676534469 106.75968612812606 -6.158116551977598 -67.37911133954024
 -10.470604633293998 -105.8151664685743 -3.7223850197886144 -142.37684902943542 -6.158116551977598 -67.37911133954024 -9.416358612170889 109.24496769343503
136.0 -10.825820803167286 117.8031628790738 -5.968960717599785 -66.01303555068743 -3.5208165599847847 -140.1377658629674 -10.617157663601786 -106.69124315606743
 -5.968960717599785 -66.01303555068743 -9.431636651297193 109.46847242055243 -11.201613568690124 -109.20424101933179 -3.687132606501869 -143.71792129576406
 -3.5208165599847847 -140.1377658629674 -11.201613568690124 -109.20424101933179 -9.99702244655946 105.39122417286153 -6.081677768752857 -68.01013925537887
 -10.617157663601784 -106.69124315606743 -3.687132606501869 -143.71792129576406 -6.081677768752857 -68.01013925537887 -9.64316109554466 107.9647531835305
137.0 -11.124871676258486 116.45544981540844 -5.898249061322494 -66.65570442779428 -3.4881654603244945 -141.49514465238428 -10.770767750084493 -107.55092089778425
 -5.898249061322494 -66.65570442779428 -9.654584774609162 108.21427217528415 -11.369882749880212 -109.97182321962713 -3.6527937869081617 -145.06643394324382
 -3.4881654603244963 -141.49514465238428 -11.369882749880212 -109.97182321962713 -10.259206091174693 103.99593421232815 -6.005096230914013 -68.66472980829612
 -10.770767750084493 -107.55092089778425 -3.6527937869081617 -145.06643394324382 -6.005096230914013 -68.66472980829612 -9.880919076068013 106.66238281800294
138.0 -11.440261246044434 115.07207667322153 -5.827559804138284 -67.32062156311724 -3.4567293409942836 -142.86008062297725 -10.931722885450288 -108.39124580807723
 -5.827559804138286 -67.32062156311724 -9.888025715966327 106.93873069166666 -11.545865991819703 -110.71077527391283 -3.6194132856099888 -146.42214793359898
 -3.456729340994288 -142.86008062297725 -11.545865991819703 -110.71077527391283 -10.534816118961851 102.5720376332863 -5.928566664736462 -69.34305193481302
 -10.931722885450286 -108.39124580807723 -3.6194132856099888 -146.42214793359898 -5.928566664736462 -69.34305193481302 -10.130263694300686 105.33661153987734
139.0 -11.773199260464803 113.64968032208287 -5.757075777020666 -68.00792992873258 -3.4265589478726657 -144.23224687688258 -11.100310031126668 -109.20894647508258
 -5.757075777020666 -68.00792992873258 -10.132547391817662 105.6406053658519 -11.729828607786175 -111.41688123197638 -3.5870335721705935 -147.78480726234247
 -3.426558947872667 -144.23224687688258 -11.729828607786175 -111.41688123197638 -10.82471718726268 101.11743598651215 -5.8522860093057725 -70.04519156852496
 -11.100310031126668 -109.20894647508258 -3.5870335721705935 -147.78480726234247 -5.8522860093057725 -70.04519156852496 -10.391882431045921 103.98597863788478
140.0 -12.125037367138084 112.18422111621155 -5.6869820290638415 -68.71769542638681 -3.397702126491842 -145.61129541693683 -11.276812424963845 -110.00040141073679
 -5.6869820290638415 -68.71769542638681 -10.388789501870232 104.31844059826054 -11.922020890055139 -112.08546606008768 -3.5556946311959403 -149.1541402016086
 -3.397702126491842 -145.61129541693683 -11.922020890055139 -112.08546606008768 -11.129861276135875 99.62964144220527 -5.7764524443103396 -70.77115067922153
 -11.276812424963843 -110.00040141073679 -3.5556946311969453 -149.15414020160867 -5.7764524443103396 -70.77115067922153 -10.666526867671223 102.60876358706386
141.0 -12.497292930760796 110.67081644508784 -5.617464927274432 -69.44990579309436 -3.3702035323114314 -146.99685859977438 -11.461506195235433 -110.76160292707436
 -5.617464927274432 -69.44990579309436 -10.657450587313066 102.97052585755975 -12.12267161282715 -112.71134839185558 -3.5254337500685557 -150.5298607328617
 -3.3702035323114314 -146.99685859977438 -12.12267161282715 -112.71134839185558 -11.451300809047797 98.10569028572547 -5.701264412983943 -71.52084690032069
 -11.461506195235433 -110.76160292707436 -3.5254337500685557 -150.5298607328617 -5.701264412983943 -71.52084690032069 -10.955021812894865 101.20293209110008
142.0 -12.891677724541884 109.10352572933773 -5.548711247554183 -70.20447006006492 -3.344104359937188 -148.3885508154549 -11.654656106037184 -111.4881171501549
 -5.548711247554187 -70.20447006006492 -10.939296296198668 101.59484477371076 -12.331979894179394 -113.28878938715955 -3.496285328494178 -151.91167015562232
 -3.344104359937188 -148.3885508154549 -12.331979894179394 -113.28878938715955 -11.790204224128587 96.54203453027215 -5.626919649638954 -72.29411373970042
 -11.654656106037184 -111.4881171501549 -3.496285328494178 -151.91167015562232 -5.626919649638954 -72.29411373970042 -11.258276065316721 99.76606974708275
143.0 -13.310132571632815 107.47506976006824 -5.480907266090599 -70.98121856407613 -3.319442096071597 -149.78597038316613 -11.856510215001599 -112.1750399453661
 -5.480907266090601 -70.98121856407613 -11.23516908256593 100.18901295422557 -12.550105020011754 -113.81143811899314 -3.468280713972849 -153.29925886005245
 -3.3194420960715987 -149.7859703831661 -12.550105020011754 -113.81143811899314 -12.147874497712765 94.93440501520084 -5.55361422098959 -73.09070136126698
 -11.856510215001599 -112.1750399453661 -3.468280713972849 -153.29925886005245 -5.55361422098959 -73.09070136126698 -11.577295138014751 98.29529992565955
144.0 -13.754869216502053 105.77646012932028 -5.414237860257653 -71.7799035030289 -3.2962503008646538 -151.18870164740895 -12.067293169645655 -112.81694864860894
 -5.414237860257654 -71.7799035030289 -11.545999611490716 98.75020149946283 -12.777153745876554 -114.27227438629674 -3.4414480670631598 -154.69230824216868
 -3.296250300864651 -151.18870164740892 -12.777153745876554 -114.27227438629674 -12.525771221939994 93.27763695971306 -5.481541590078145 -73.91027791787022
 -12.067293169645655 -112.81694864860893 -3.4414480670631598 -154.69230824216868 -5.481541590077148 -73.91027791787032 -11.913196340722434 96.7871813348223
145.0 -14.228420894703845 103.99650388157873 -5.348885627803169 -72.60020001982447 -3.27455842215117 -152.5963172545745 -12.287197802795163 -113.40784970137447
 -5.348885627804166 -72.60020001982447 -11.872820195808485 97.27504221181998 -13.013164494516193 -114.66355055953593 -3.415812259986892 -156.09049273925413
 -3.274558422151167 -152.5963172545745 -13.01316449452704 -114.66355055953355 -12.925536949372848 91.5654455418994 -5.410891711073965 -74.75243140965456
 -12.287197802795166 -113.40784970137449 -3.415812259986899 -156.0904927392542 -5.410891711073965 -74.75243140965456 -12.26722669828451 95.23757916940697
146.0 -14.733703164145115 102.1211325286282 -5.2850300326266435 -73.44170779166932 -3.254391646702643 -154.00838058433933 -12.516374608313644 -113.94112261673934
 -5.285030032626645 -73.44170779166932 -12.216780653714885 95.75950914654001 -13.25808776062713 -114.97673511189615 -3.391394811665795 -157.49348195628363
 -3.2543916467026457 -154.0083805843393 -13.25808776062713 -114.97673511189615 -13.349028628908325 89.79013419166853 -5.341850162603382 -75.61667203575087
 -12.516374608313646 -113.94112261673935 -3.391394811665795 -157.49348195628363 -5.341850162603382 -75.61667203575087 -12.640784281034225 93.64150156009946
147.0 -15.274086386567687 100.13248014628996 -5.2228465848646435 -74.30395309578311 -3.235770792163642 -155.4244483076831 -12.754918585489639 -114.4094612115831
 -5.222846584864641 -74.30395309578311 -12.579167048285878 94.19876928082658 -13.511761929889442 -115.20246196824338 -3.3682138617119635 -158.90094285285073
 -3.235770792163639 -155.4244483076831 -13.511761929889442 -115.20246196824338 -13.798355045454331 87.94221119471094 -5.274597326487921 -76.50243500215173
 -12.754918585489639 -114.4094612115831 -3.3682138617119635 -158.90094285285073 -5.274597326487921 -76.50243500215173 -13.035443632409493 91.99288993984374
148.0 -15.853480420794316 98.007597435132 -5.162506062282013 -75.18639131614313 -3.2187122427290147 -156.84407303548312 -13.002852835686014 -114.80481379788311
 -5.162506062282014 -75.18639131614313 -12.961423847470066 92.58699245616963 -13.773883633146667 -115.33049188602044 -3.346284185187434 -160.31254195465408
 -3.2187122427290134 -156.84407303548315 -13.773883633146667 -115.33049188602044 -14.275921185915957 86.00987977715961 -5.209307617971811 -77.40908374378189
 -13.002852835686017 -114.80481379788311 -3.346284185187434 -160.31254195465408 -5.209307617971811 -77.40908374378189 -13.452986093753921 90.28434751252567
149.0 -16.47642977529492 95.71662924844802 -5.104173779082599 -76.08840985147386 -3.2032279309406 -158.26680602248385 -13.2601081816096 -115.11832513918382
 -5.104173779082599 -76.08840985147386 -13.365180118334848 90.91710703319437 -14.043971718851056 -115.34969491621382 -3.32561724919226 -161.7279475518181
 -3.2032279309406015 -158.26680602248385 -14.043971718851056 -115.34969491621382 -14.784480275444134 83.97835131639746 -5.146148772563331 -78.33591351516051
 -13.2601081816096 -115.11832513918382 -3.32561724919226 -161.7279475518181 -5.146148772563331 -78.33591351516051 -13.895435926178424 88.50678359000513
150.0 -17.14821185466414 93.22018895916878 -5.0480089073652765 -77.00933137999597 -3.1893253671342747 -159.69219988448594 -13.526497968047275 -115.34028457258596
 -5.048008907365274 -77.00933137999597 -13.792280422980877 89.1804823767593 -14.321323987170953 -115.24806675978158 -3.3062213114391046 -163.1468318464686
 -3.189325367134272 -159.69219988448597 -14.321323987170953 -115.24806675978158 -15.327193626736737 81.82890793357633 -5.085281193661339 -79.28215530099241
 -13.526497968047273 -115.34028457258596 -3.3062213114391046 -163.1468318464686 -5.085281193662334 -79.28215530099233 -14.365103172751617 86.64894215187778
151.0 -17.874918060223997 90.46551318806713 -4.994163855428927 -77.94841743375433 -3.1770077171739213 -161.11981128725432 -13.801687111967924 -115.46008692445436
