#  GHZ S DB R 50.0
 8.00000000e+01 -1.867648288115e-01 -1.225159619412e+02 -5.383336985475e+01 -3.508638388714e+01 -5.383336985475e+01 -3.508638388709e+01 -1.868370707735e-01 -1.225844174640e+02
 8.16000000e+01 -1.932085322264e-01 -1.242156530237e+02 -5.384934387305e+01 -3.688585655662e+01 -5.384934387308e+01 -3.688585655668e+01 -1.932845310572e-01 -1.242846052011e+02
 8.32000000e+01 -1.998039992679e-01 -1.258990084239e+02 -5.386234997072e+01 -3.867688429063e+01 -5.386234997073e+01 -3.867688429082e+01 -1.998840127979e-01 -1.259684746022e+02
 8.48000000e+01 -2.065638649804e-01 -1.275672206849e+02 -5.387133680528e+01 -4.046173641267e+01 -5.387133680526e+01 -4.046173641258e+01 -2.066482720344e-01 -1.276372230189e+02
 8.64000000e+01 -2.135020865483e-01 -1.292215064561e+02 -5.387514488881e+01 -4.224285007691e+01 -5.387514488888e+01 -4.224285007700e+01 -2.135913921630e-01 -1.292920719202e+02
 8.80000000e+01 -2.206340848878e-01 -1.308631096600e+02 -5.387248972019e+01 -4.402285210451e+01 -5.387248972018e+01 -4.402285210458e+01 -2.207289258332e-01 -1.309342700944e+02
 8.96000000e+01 -2.279769105566e-01 -1.324933052462e+02 -5.386194327046e+01 -4.580458278420e+01 -5.386194327045e+01 -4.580458278489e+01 -2.280780614026e-01 -1.325650974388e+02
 9.12000000e+01 -2.355494384803e-01 -1.341134035954e+02 -5.384191379837e+01 -4.759112139805e+01 -5.384191379834e+01 -4.759112139836e+01 -2.356578184324e-01 -1.341858694022e+02
 9.28000000e+01 -2.433725970304e-01 -1.357247556535e+02 -5.381062403825e+01 -4.938581300553e+01 -5.381062403816e+01 -4.938581300520e+01 -2.434892777447e-01 -1.357979421612e+02
 9.44000000e+01 -2.514696383062e-01 -1.373287588933e+02 -5.376608791081e+01 -5.119229583614e+01 -5.376608791087e+01 -5.119229583676e+01 -2.515958529482e-01 -1.374027186266e+02
 9.60000000e+01 -2.598664581565e-01 -1.389268642250e+02 -5.370608603796e+01 -5.301452832811e+01 -5.370608603797e+01 -5.301452832801e+01 -2.600036119646e-01 -1.390016554033e+02
 9.76000000e+01 -2.685919766566e-01 -1.405205840052e+02 -5.362814052179e+01 -5.485681452518e+01 -5.362814052179e+01 -5.485681452488e+01 -2.687416593607e-01 -1.405962708538e+02
 9.92000000e+01 -2.776785925790e-01 -1.421115013302e+02 -5.352948966186e+01 -5.672382625523e+01 -5.352948966185e+01 -5.672382625396e+01 -2.778425929892e-01 -1.421881544519e+02
 1.00800000e+02 -2.871627291085e-01 -1.437012808429e+02 -5.340706354421e+01 -5.862062019457e+01 -5.340706354422e+01 -5.862062019374e+01 -2.873430523600e-01 -1.437789776564e+02
 1.02400000e+02 -2.970854929540e-01 -1.452916813403e+02 -5.325746171598e+01 -6.055264780568e+01 -5.325746171585e+01 -6.055264780488e+01 -2.972843808630e-01 -1.453705065956e+02
 1.04000000e+02 -3.074934755625e-01 -1.468845705405e+02 -5.307693445440e+01 -6.252575623598e+01 -5.307693445432e+01 -6.252575623578e+01 -3.077134307103e-01 -1.469646169193e+02
 1.05600000e+02 -3.184397339801e-01 -1.484819424606e+02 -5.286136939011e+01 -6.454617884934e+01 -5.286136939001e+01 -6.454617885054e+01 -3.186835482983e-01 -1.485633112756e+02
 1.07200000e+02 -3.299850009642e-01 -1.500859379783e+02 -5.260628540754e+01 -6.662051524154e+01 -5.260628540771e+01 -6.662051524172e+01 -3.302557896286e-01 -1.501687399854e+02
 1.08800000e+02 -3.421991905992e-01 -1.516988693095e+02 -5.230683572432e+01 -6.875570276191e+01 -5.230683572430e+01 -6.875570276168e+01 -3.425004324136e-01 -1.517832256507e+02
 1.10400000e+02 -3.551632889295e-01 -1.533232493441e+02 -5.195782175177e+01 -7.095898471835e+01 -5.195782175186e+01 -7.095898471680e+01 -3.554988745345e-01 -1.534092926420e+02
 1.12000000e+02 -3.689717520844e-01 -1.549618270629e+02 -5.155371863954e+01 -7.323788489125e+01 -5.155371863942e+01 -7.323788488853e+01 -3.693460416945e-01 -1.550497026938e+02
 1.13600000e+02 -3.837355817330e-01 -1.566176306438e+02 -5.108871220386e+01 -7.560020355776e+01 -5.108871220354e+01 -7.560020355843e+01 -3.841534745742e-01 -1.567074982208e+02
 1.15200000e+02 -3.995863168461e-01 -1.582940203838e+02 -5.055674519367e+01 -7.805405667872e+01 -5.055674519349e+01 -7.805405667862e+01 -4.000533350509e-01 -1.583860554894e+02
 1.16800000e+02 -4.166812833815e-01 -1.599947542886e+02 -4.995156854569e+01 -8.060798664702e+01 -4.995156854580e+01 -8.060798664837e+01 -4.172036739587e-01 -1.600891505050e+02
 1.18400000e+02 -4.352105986566e-01 -1.617240701931e+02 -4.926679058601e+01 -8.327117966672e+01 -4.926679058614e+01 -8.327117966664e+01 -4.357954581065e-01 -1.618210414919e+02
 1.20000000e+02 -4.554066663905e-01 -1.634867897096e+02 -4.849591430467e+01 -8.605383079048e+01 -4.849591430482e+01 -8.605383079057e+01 -4.560620941816e-01 -1.635865732771e+02
 1.21600000e+02 -4.775572751881e-01 -1.652884513541e+02 -4.763235020357e+01 -8.896770381027e+01 -4.763235020363e+01 -8.896770380916e+01 -4.782925642905e-01 -1.653913109492e+02
 1.23200000e+02 -5.020240207644e-01 -1.671354831719e+02 -4.666939017491e+01 -9.202694122793e+01 -4.666939017494e+01 -9.202694122739e+01 -5.028498963657e-01 -1.672417131424e+02
 1.24800000e+02 -5.292687769578e-01 -1.690354295199e+02 -4.560012666917e+01 -9.524919431005e+01 -4.560012666919e+01 -9.524919431053e+01 -5.301976987470e-01 -1.691453596376e+02
 1.26400000e+02 -5.598926490897e-01 -1.709972529987e+02 -4.441730106809e+01 -9.865717231324e+01 -4.441730106810e+01 -9.865717231411e+01 -5.609391987318e-01 -1.711112543265e+02
 1.28000000e+02 -5.946948377671e-01 -1.730317417495e+02 -4.311306549385e+01 -1.022807665860e+02 -4.311306549376e+01 -1.022807665863e+02 -5.958762224123e-01 -1.731502338217e+02
 1.29600000e+02 -6.347642659478e-01 -1.751520653661e+02 -4.167864296291e+01 -1.061600107155e+02 -4.167864296290e+01 -1.061600107151e+02 -6.361009832611e-01 -1.752755250609e+02
 1.31200000e+02 -6.816270064564e-01 -1.773745397258e+02 -4.010387219291e+01 -1.103493291899e+02 -4.010387219294e+01 -1.103493291898e+02 -6.831437396195e-01 -1.775035123468e+02
 1.32800000e+02 -7.374924112900e-01 -1.797196782281e+02 -3.837662825260e+01 -1.149238728423e+02 -3.837662825271e+01 -1.149238728423e+02 -7.392192607877e-01 -1.798547915089e+02
 1.34400000e+02 -8.056811532317e-01 +1.777863955997e+02 -3.648212866391e+01 -1.199893725719e+02 -3.648212866379e+01 -1.199893725719e+02 -8.076553783112e-01 +1.776444135722e+02
 1.36000000e+02 -8.914033842684e-01 +1.751101998965e+02 -3.440219760519e+01 -1.256981260042e+02 -3.440219760523e+01 -1.256981260041e+02 -8.936719476865e-01 +1.749604974521e+02
 1.37600000e+02 -1.003239872388e+00 +1.722093279534e+02 -3.211476239380e+01 -1.322759668433e+02 -3.211476239378e+01 -1.322759668437e+02 -1.005863314692e+00 +1.720508994366e+02
 1.39200000e+02 -1.156080609220e+00 +1.690335563896e+02 -2.959448246329e+01 -1.400691678238e+02 -2.959448246330e+01 -1.400691678240e+02 -1.159139257777e+00 +1.688652024337e+02
 1.40800000e+02 -1.377064613489e+00 +1.655387355597e+02 -2.681734049621e+01 -1.496265433503e+02 -2.681734049621e+01 -1.496265433502e+02 -1.380669166481e+00 +1.653590133440e+02
 1.42400000e+02 -1.716771303635e+00 +1.617522801811e+02 -2.377781542703e+01 -1.618335532265e+02 -2.377781542701e+01 -1.618335532264e+02 -1.721081999066e+00 +1.615594537082e+02
 1.44000000e+02 -2.261049623155e+00 +1.580238940057e+02 -2.054216197299e+01 -1.780577418699e+02 -2.054216197292e+01 -1.780577418698e+02 -2.266310716212e+00 +1.578159478556e+02
 1.45600000e+02 -3.075937055998e+00 +1.557036484219e+02 -1.737522055507e+01 +1.600922921761e+02 -1.737522055504e+01 +1.600922921760e+02 -3.082514473100e+00 +1.554786063710e+02
 1.47200000e+02 -3.868553095111e+00 +1.569805858666e+02 -1.484240622520e+01 +1.325976542076e+02 -1.484240622520e+01 +1.325976542078e+02 -3.876830097370e+00 +1.567370596137e+02
 1.48800000e+02 -4.006848667561e+00 +1.595483146895e+02 -1.337793189202e+01 +1.034660251622e+02 -1.337793189201e+01 +1.034660251621e+02 -4.017072947915e+00 +1.592832173381e+02
 1.50400000e+02 -3.822673241024e+00 +1.585420674488e+02 -1.265286738193e+01 +7.718125669211e+01 -1.265286738191e+01 +7.718125669208e+01 -3.835644929787e+00 +1.582488861008e+02
 1.52000000e+02 -3.923328905573e+00 +1.548061061303e+02 -1.207843374637e+01 +5.403012377766e+01 -1.207843374635e+01 +5.403012377772e+01 -3.940891390871e+00 +1.544786173193e+02
 1.53600000e+02 -4.479221800753e+00 +1.507224575074e+02 -1.139003344615e+01 +3.198546693131e+01 -1.139003344614e+01 +3.198546693133e+01 -4.504725212326e+00 +1.503587609453e+02
 1.55200000e+02 -5.482042720620e+00 +1.487368441026e+02 -1.063236030039e+01 +9.131577628187e+00 -1.063236030040e+01 +9.131577628190e+00 -5.520963056553e+00 +1.483541259345e+02
 1.56800000e+02 -6.571214123318e+00 +1.518393733465e+02 -1.002631346619e+01 -1.533210605329e+01 -1.002631346620e+01 -1.533210605329e+01 -6.626949642616e+00 +1.515082947609e+02
 1.58400000e+02 -6.829242405385e+00 +1.590478547298e+02 -9.791738844564e+00 -4.060036371551e+01 -9.791738844560e+00 -4.060036371559e+01 -6.888735644562e+00 +1.588447359129e+02
 1.60000000e+02 -6.134026788279e+00 +1.628845156815e+02 -9.936245041827e+00 -6.496030190014e+01 -9.936245041823e+00 -6.496030190023e+01 -6.181724377943e+00 +1.627418920934e+02
 1.61600000e+02 -5.389616023418e+00 +1.610627949370e+02 -1.025568434729e+01 -8.744745016850e+01 -1.025568434730e+01 -8.744745016842e+01 -5.427788957399e+00 +1.608917605436e+02
 1.63200000e+02 -5.047667406935e+00 +1.562132730477e+02 -1.053185484991e+01 -1.084292914525e+02 -1.053185484993e+01 -1.084292914525e+02 -5.083358752943e+00 +1.559801667394e+02
 1.64800000e+02 -5.161054387365e+00 +1.505355756509e+02 -1.065729181439e+01 -1.290271335882e+02 -1.065729181439e+01 -1.290271335882e+02 -5.200776732990e+00 +1.502316519295e+02
 1.66400000e+02 -5.704351415107e+00 +1.456927397424e+02 -1.065586901901e+01 -1.505212825293e+02 -1.065586901900e+01 -1.505212825292e+02 -5.755384341886e+00 +1.453255779420e+02
 1.68000000e+02 -6.532112016425e+00 +1.437976309708e+02 -1.068365611014e+01 -1.738896201928e+02 -1.068365611015e+01 -1.738896201928e+02 -6.602397797694e+00 +1.434164219166e+02
 1.69600000e+02 -7.080937604181e+00 +1.462427173057e+02 -1.099646322474e+01 +1.608532555147e+02 -1.099646322475e+01 +1.608532555148e+02 -7.167983034054e+00 +1.459594572762e+02
 1.71200000e+02 -6.719308645324e+00 +1.489540100222e+02 -1.179685522937e+01 +1.351320256080e+02 -1.179685522936e+01 +1.351320256080e+02 -6.801076217595e+00 +1.487966150006e+02
 1.72800000e+02 -5.876841679881e+00 +1.464748242096e+02 -1.305150216909e+01 +1.109383353022e+02 -1.305150216908e+01 +1.109383353021e+02 -5.942715945604e+00 +1.463248241868e+02
 1.74400000e+02 -5.224773243044e+00 +1.393384180729e+02 -1.454520917410e+01 +8.929847199084e+01 -1.454520917410e+01 +8.929847199071e+01 -5.280150903625e+00 +1.391096588351e+02
 1.76000000e+02 -4.919134422510e+00 +1.297201462207e+02 -1.607686590864e+01 +7.004903344806e+01 -1.607686590864e+01 +7.004903344801e+01 -4.970334409670e+00 +1.293779430225e+02
 1.77600000e+02 -4.895051391102e+00 +1.186728493394e+02 -1.754251136713e+01 +5.253447785184e+01 -1.754251136712e+01 +5.253447785198e+01 -4.945854052787e+00 +1.181984145618e+02
 1.79200000e+02 -5.068547207079e+00 +1.064263424492e+02 -1.891599445804e+01 +3.610802965545e+01 -1.891599445808e+01 +3.610802965542e+01 -5.120492833620e+00 +1.058023491476e+02
 1.80800000e+02 -5.369337910863e+00 +9.287514938885e+01 -2.021386320108e+01 +2.029022099746e+01 -2.021386320111e+01 +2.029022099749e+01 -5.421808307053e+00 +9.208375339937e+01
 1.82400000e+02 -5.728956118877e+00 +7.783917639807e+01 -2.147229530463e+01 +4.780244864946e+00 -2.147229530464e+01 +4.780244865392e+00 -5.778800237009e+00 +7.686684623449e+01
 1.84000000e+02 -6.066750176613e+00 +6.123992782703e+01 -2.273414701092e+01 -1.056774532338e+01 -2.273414701088e+01 -1.056774532303e+01 -6.108107827280e+00 +6.008868970463e+01
 1.85600000e+02 -6.289366069214e+00 +4.327458279014e+01 -2.404099111960e+01 -2.577206362652e+01 -2.404099111958e+01 -2.577206362606e+01 -6.314886232174e+00 +4.197669447987e+01
 1.87200000e+02 -6.314118499741e+00 +2.453614017121e+01 -2.542748277054e+01 -4.075279259373e+01 -2.542748277040e+01 -4.075279259317e+01 -6.318264914777e+00 +2.315972205166e+01
 1.88800000e+02 -6.107659619367e+00 +5.927884369987e+00 -2.691749353684e+01 -5.536598769284e+01 -2.691749353700e+01 -5.536598769269e+01 -6.090169440196e+00 +4.559433123341e+00
 1.90400000e+02 -5.704126935147e+00 -1.165555064914e+01 -2.852239486621e+01 -6.944203029612e+01 -2.852239486622e+01 -6.944203029551e+01 -5.670142033074e+00 -1.294298896517e+01
 1.92000000e+02 -5.180885369660e+00 -2.763370605426e+01 -3.024177289925e+01 -8.282257037435e+01 -3.024177289927e+01 -8.282257037382e+01 -5.137748167618e+00 -2.879953690288e+01
 1.93600000e+02 -4.617349562619e+00 -4.180639762266e+01 -3.206617295138e+01 -9.538905710137e+01 -3.206617295138e+01 -9.538905710163e+01 -4.571437793911e+00 -4.283959240727e+01
 1.95200000e+02 -4.070412579058e+00 -5.423564932957e+01 -3.398085287549e+01 -1.070787368256e+02 -3.398085287576e+01 -1.070787368246e+02 -4.025912870942e+00 -5.514253859166e+01
 1.96800000e+02 -3.571232370999e+00 -6.510429477612e+01 -3.596940969624e+01 -1.178888426559e+02 -3.596940969642e+01 -1.178888426573e+02 -3.530338660333e+00 -6.589835241448e+01
 1.98400000e+02 -3.131978509420e+00 -7.462581815264e+01 -3.801649881573e+01 -1.278733601940e+02 -3.801649881637e+01 -1.278733601935e+02 -3.095533351080e+00 -7.532202354568e+01
 2.00000000e+02 -2.753600604429e+00 -8.300277762579e+01 -4.010935119303e+01 -1.371378567859e+02 -4.010935119356e+01 -1.371378567863e+02 -2.721672152824e+00 -8.361519417916e+01
 2.01600000e+02 -2.431482909168e+00 -9.041262006813e+01 -4.223810498836e+01 -1.458370579155e+02 -4.223810498847e+01 -1.458370579129e+02 -2.403755221665e+00 -9.095360308607e+01
 2.03200000e+02 -2.158842490912e+00 -9.700560384641e+01 -4.439497627335e+01 -1.541784293197e+02 -4.439497627305e+01 -1.541784293211e+02 -2.134845268566e+00 -9.748570096146e+01
 2.04800000e+02 -1.928534819421e+00 -1.029071630909e+02 -4.657197039176e+01 -1.624335880737e+02 -4.657197039122e+01 -1.624335880791e+02 -1.907766173091e+00 -1.033352681235e+02
 2.06400000e+02 -1.733903374864e+00 -1.082214708884e+02 -4.875612327946e+01 -1.709569886634e+02 -4.875612327902e+01 -1.709569886567e+02 -1.715889163444e+00 -1.086050481119e+02
 2.08000000e+02 -1.569107209486e+00 -1.130349820341e+02 -5.092009847668e+01 +1.797959899813e+02 -5.092009847714e+01 +1.797959899799e+02 -1.553425419168e+00 -1.133802907775e+02
 2.09600000e+02 -1.429185037072e+00 -1.174195615643e+02 -5.300498544175e+01 +1.692819348954e+02 -5.300498544170e+01 +1.692819348981e+02 -1.415472076414e+00 -1.177318573196e+02
 2.11200000e+02 -1.309998738062e+00 -1.214351191313e+02 -5.489553902787e+01 +1.569949880753e+02 -5.489553902714e+01 +1.569949880745e+02 -1.297947085186e+00 -1.217188254346e+02
 2.12800000e+02 -1.208130862542e+00 -1.251317797587e+02 -5.640787042002e+01 +1.428272447940e+02 -5.640787042139e+01 +1.428272448020e+02 -1.197483107107e+00 -1.253906318739e+02
 2.14400000e+02 -1.120772785211e+00 -1.285516541786e+02 -5.734469741222e+01 +1.275696833416e+02 -5.734469741167e+01 +1.275696833352e+02 -1.111314634455e+00 -1.287888178615e+02
 2.16000000e+02 -1.045620007744e+00 -1.317302757681e+02 -5.763238871976e+01 +1.128642621417e+02 -5.763238871909e+01 +1.128642621393e+02 -1.037173480253e+00 -1.319484448671e+02
 2.17600000e+02 -9.807808247200e-01 -1.346977649137e+02 -5.738888520137e+01 +1.002076416949e+02 -5.738888520267e+01 +1.002076416915e+02 -9.731981474938e-01 -1.348992413598e+02
 2.19200000e+02 -9.246995951055e-01 -1.374797726782e+02 -5.681952242727e+01 +9.014069510043e+01 -5.681952242681e+01 +9.014069509648e+01 -9.178579612378e-01 -1.376665319859e+02
 2.20800000e+02 -8.760936504462e-01 -1.400982466751e+02 -5.609285392804e+01 +8.242236128213e+01 -5.609285392840e+01 +8.242236127563e+01 -8.698908237154e-01 -1.402719915941e+02
 2.22400000e+02 -8.339020504412e-01 -1.425720540457e+02 -5.530789845629e+01 +7.653699117273e+01 -5.530789845572e+01 +7.653699116900e+01 -8.282527303510e-01 -1.427342585506e+02
 2.24000000e+02 -7.972442420611e-01 -1.449174896482e+02 -5.451314973593e+01 +7.198895936561e+01 -5.451314973593e+01 +7.198895936901e+01 -7.920770791058e-01 -1.450694350527e+02
 2.25600000e+02 -7.653868166272e-01 -1.471486919689e+02 -5.372962543682e+01 +6.838874602955e+01 -5.372962543692e+01 +6.838874603119e+01 -7.606419673894e-01 -1.472914966177e+02
 2.27200000e+02 -7.377168040856e-01 -1.492779847349e+02 -5.296524720512e+01 +6.545173399642e+01 -5.296524720536e+01 +6.545173399376e+01 -7.333439250535e-01 -1.494126284427e+02
 2.28800000e+02 -7.137202063766e-01 -1.513161585668e+02 -5.222215577024e+01 +6.297536680195e+01 -5.222215577012e+01 +6.297536680444e+01 -7.096767980909e-01 -1.514435027504e+02
 2.30400000e+02 -6.929647140726e-01 -1.532727041105e+02 -5.150011033735e+01 +6.081662192335e+01 -5.150011033728e+01 +6.081662192248e+01 -6.892147393379e-01 -1.533935083814e+02
 2.32000000e+02 -6.750857582922e-01 -1.551560057879e+02 -5.079798491793e+01 +5.887459084332e+01 -5.079798491763e+01 +5.887459084364e+01 -6.715984692056e-01 -1.552709416315e+02
 2.33600000e+02 -6.597752218097e-01 -1.569735034827e+02 -5.011439456570e+01 +5.707796971134e+01 -5.011439456546e+01 +5.707796970865e+01 -6.565241395925e-01 -1.570831655502e+02
 2.35200000e+02 -6.467722723345e-01 -1.587318280446e+02 -4.944793982482e+01 +5.537629180230e+01 -4.944793982480e+01 +5.537629180107e+01 -6.437342724819e-01 -1.588367435126e+02
 2.36800000e+02 -6.358558927528e-01 -1.604369153637e+02 -4.879729045045e+01 +5.373382440267e+01 -4.879729045022e+01 +5.373382440352e+01 -6.330103564368e-01 -1.605375517676e+02
 2.38400000e+02 -6.268387732594e-01 -1.620941028737e+02 -4.816120455089e+01 +5.212532615610e+01 -4.816120455057e+01 +5.212532615490e+01 -6.241667753361e-01 -1.621908747918e+02
 2.40000000e+02 -6.195623040235e-01 -1.637082116387e+02 -4.753852250498e+01 +5.053309775825e+01 -4.753852250497e+01 +5.053309775884e+01 -6.170458193924e-01 -1.638014865743e+02
