! Created with skrf 1.11.0 (http://scikit-rf.org).
# GHz S DB R 50.0 
!freq dBS11 angS11 dBS21 angS21 dBS12 angS12 dBS22 angS22
80.0 -0.18233754523004267 -120.0719433771557 -53.93536179452491 -33.87325071721579 -53.93536179452491 -33.8732507171658 -0.18683666069533864 -122.58441945652781
81.6 -0.18862093928346674 -121.68260174722118 -53.9514308624162 -35.629137914850354 -53.9514308624462 -35.629137914910345 -0.19328412417178503 -124.28460731549568
83.2 -0.1950584005866613 -123.27650503223195 -53.96439032845733 -37.37642523793734 -53.964390328467324 -37.37642523812734 -0.19988360962766105 -125.96847684048755
84.8 -0.2016629523818798 -124.85489276269185 -53.97318784262111 -39.1174076771902 -53.97318784260111 -39.11740767710019 -0.2066478730408765 -127.637225383873
86.4 -0.20844895571542754 -126.41902660671863 -53.97666277869526 -40.8545472942195 -53.97666277876525 -40.854547294309505 -0.2135909977497128 -129.29207441561994
88.0 -0.21543225555109516 -127.97019373763712 -53.97352933973452 -42.590495189153266 -53.97352933972452 -42.59049518922326 -0.22072853634999776 -130.9342727252291
89.6 -0.2226303519141501 -129.5097108002459 -53.962358016103536 -44.328115442098266 -53.96235801609353 -44.32811544278826 -0.22807767715185578 -132.5651002114777
91.2 -0.2300626006889546 -131.0389285396821 -53.941555372815316 -46.07051079071441 -53.94155537278532 -46.070510791024425 -0.23565743967765881 -134.18587232497575
92.8 -0.2377504497611921 -132.5592371746518 -53.909342207887235 -47.82104957878712 -53.90934220779724 -47.821049578457135 -0.24348890472258805 -135.79794524453803
94.4 -0.24571771755299107 -134.07207261488466 -53.86373023186964 -49.58339332842218 -53.86373023192964 -49.58339332904218 -0.25159548588479447 -137.4027218836779
96.0 -0.2539909227331336 -135.578923647115 -53.802497549120424 -51.361523976352146 -53.802497549130436 -51.361523976252144 -0.2600032510980305 -139.00165885062924
97.6 -0.262599676128319 -137.08134024328058 -53.723163400373856 -53.159769490149195 -53.723163400373856 -53.15976948984919 -0.26874130497247856 -140.5962745120063
99.2 -0.2715771487669981 -138.58094318179184 -53.62296284006679 -54.98282629288089 -53.62296284005679 -54.98282629161088 -0.27784224544798086 -142.1881583467148
100.8 -0.28096063380671865 -140.0794352175545 -53.498822281029575 -56.83577660604318 -53.49882228103958 -56.83577660521319 -0.2873427121832139 -143.7789818199335
102.4 -0.2907922251385966 -141.5786140957307 -53.347337119479434 -58.724098706163744 -53.34733711934943 -58.72409870536373 -0.29728404880441894 -145.37051106799098
104.0 -0.30111964220249193 -143.08038777817652 -53.16475294793757 -60.65366819232147 -53.16475294785757 -60.653668192121465 -0.30771310788558887 -146.9646217508754
105.6 -0.31199723963576054 -144.58679234661724 -52.946952114656725 -62.63074894866437 -52.94695211455672 -62.630748949864376 -0.318683236366814 -148.5633165297305
107.2 -0.3234872527777465 -146.1000131713833 -52.68944755061447 -64.6619736690819 -52.689447550784465 -64.66197366926191 -0.33025549105929636 -150.16874574231215
108.8 -0.335661347165753 -147.62241009841335 -52.38738576398231 -66.7543159870103 -52.38738576396231 -66.7543159867803 -0.3425001508781522 -151.78323201261708
110.4 -0.3486025640678607 -149.15654762295404 -52.03556060157 -68.91505941486352 -52.03556060166001 -68.91505941331353 -0.3554986154949892 -153.4092997401451
112.0 -0.362407787971133 -150.70523130685478 -51.6284386771326 -71.15177275492276 -51.62843867701259 -71.15177275220275 -0.3693458132924832 -155.04971069803221
113.6 -0.3771909106159079 -152.27155209204594 -51.16019616199036 -73.47230723200471 -51.16019616167036 -73.4723072326747 -0.38415328899262663 -156.70750735301053
115.2 -0.3930869372069917 -153.85894069544884 -50.624764887171104 -75.88483706698796 -50.62476488699111 -75.88483706688795 -0.40005321062847315 -158.38606604232422
116.8 -0.4102573858902367 -155.47123501556084 -50.01588340170016 -78.39797198246147 -50.01588340181016 -78.39797198381146 -0.4172036385194776 -160.08916286890084
118.4 -0.42889749098486724 -157.1127645200975 -49.327145936432366 -81.02097684008692 -49.32714593656236 -81.02097684000691 -0.4357955542839845 -161.82105619277922
120.0 -0.4492459662407343 -158.7884570567201 -48.55203938950349 -83.76413962390008 -48.55203938965347 -83.76413962399008 -0.4560623880728987 -163.58659103190067
121.6 -0.4715984715301571 -160.5039756386102 -47.68395582067039 -86.63933523716777 -47.68395582073039 -86.63933523605778 -0.47829315977441195 -165.39133274614298
123.2 -0.49632655065177245 -162.26589580887523 -46.71616589567786 -89.66084074587658 -46.71616589570786 -89.66084074533659 -0.5028509592482787 -167.24174035846042
124.8 -0.5239048405091011 -164.0819386430456 -45.6417375209065 -92.8464726930596 -45.6417375209265 -92.8464726935396 -0.5301994983295093 -169.14539421032654
126.4 -0.5549511081093175 -165.96128095961976 -44.45338356446193 -96.21914653793434 -44.45338356447194 -96.21914653880434 -0.5609421809901645 -171.11129900322194
128.0 -0.5902867507494387 -167.91497378571208 -43.1432228820003 -99.80901547716435 -43.1432228819103 -99.80901547746437 -0.5958811419808213 -173.15029251185356
129.6 -0.6310309742422311 -169.9565135218354 -41.70243956868191 -103.6564523712413 -41.70243956867192 -103.65645237084132 -0.6361091477546712 -175.27560330278754
131.2 -0.6787523434341725 -172.10262777170914 -40.12082683578646 -107.81633157469531 -40.12082683581646 -107.8163315745953 -0.6831574746514818 -177.50361782245764
132.8 -0.7357218495006578 -174.37435542891888 -38.38620700416941 -112.36441647529294 -38.38620700427941 -112.36441647529294 -0.7392428210535563 -179.8549342516189
134.4 -0.8053531625502365 -176.7984978211527 -36.483738096632216 -117.40729769043833 -36.48373809651222 -117.40729769043833 -0.8076967845716427 177.64422261339274
136.0 -0.8930033544928763 -179.40941331332337 -34.395182101369834 -123.09852089835489 -34.395182101409844 -123.09852089825493 -0.8937467830441488 174.96025408830536
137.6 -1.0074978654049596 177.74938124372432 -32.098415817624335 -129.66579719738866 -32.098415817604334 -129.66579719778866 -1.0060026547378405 172.05063574619916
139.2 -1.164157984838642 174.62638607961608 -29.568103513294417 -137.45831476925008 -29.568103513304422 -137.45831476945006 -1.159405702172976 168.86509162919953
140.8 -1.3909227959338035 171.17655335850287 -26.78041512072462 -147.02946871659043 -26.780415120724626 -147.0294687164904 -1.3811833701262763 165.35973526740545
142.4 -1.73987130831037 167.42926919969275 -23.73055455909772 -159.2714837818498 -23.730554559077724 -159.27148378174982 -1.7220203950575972 161.56342253975285
144.0 -2.2992125738351525 163.74846154893575 -20.486891058626888 -175.55865848463577 -20.486891058556886 -175.55865848453575 -2.2675206286651255 157.83061036379374
145.6 -3.135026894431412 161.5319123564259 -17.318635772025925 162.50868147959508 -17.318635771995922 162.50868147949512 -3.0812136215306483 155.51608373170322
147.2 -3.9399015403477176 163.00564283637652 -14.793437943456686 134.96391306750823 -14.793437943456686 134.9639130677082 -3.866031172243922 156.76413457095842
148.8 -4.072123028959242 165.70850719004412 -13.3354016043885 105.85797542898405 -13.3354016043785 105.85797542888405 -4.0043319872903735 159.21288509189924
150.4 -3.888929990853753 164.72201014087344 -12.60652742424954 79.6131101787298 -12.606527424229537 79.6131101786998 -3.8361170262462756 158.12058007458043
152.0 -4.005682891474266 160.99250053696213 -12.023212777595964 56.4544584526698 -12.023212777575967 56.454458452729796 -3.956685489827887 154.37050473649956
153.6 -4.591951598107667 156.9679363382301 -11.328814019082154 34.351143269922744 -11.328814019072155 34.35114326994275 -4.533368275247556 150.33894320673483
155.2 -5.634237327481182 155.19345875263446 -10.573725298026957 11.41730986286205 -10.573725298036958 11.41730986286505 -5.551696805968432 148.511858487047
156.8 -6.739762868891049 158.7369803342038 -9.97987115561741 -13.09106233913121 -9.979871155627405 -13.091062339131213 -6.626859926185147 151.84611427311066
158.4 -6.955799418045629 166.27968652564502 -9.759197370063928 -38.32135732348973 -9.75919737005993 -38.32135732356972 -6.841286144453407 159.0413461361391
160.0 -6.2222269014251905 170.05268909983002 -9.908223963453343 -62.58480317935072 -9.908223963449345 -62.58480317944072 -6.134393742194762 162.62683812333964
161.6 -5.4770632132247545 168.07530212249802 -10.220621075924255 -84.98596623237519 -10.220621075934256 -84.9859662322952 -5.408172415367795 160.6356267851747
163.2 -5.155145311960355 163.11571858066236 -10.483805604669739 -105.93444245332905 -10.483805604689742 -105.93444245332905 -5.090407059962451 155.722151471708
164.8 -5.302066973182189 157.38078539037264 -10.596905913317702 -126.55623050649557 -10.5969059133177 -126.55623050649557 -5.229148904796393 150.04916709920195
166.4 -5.891242649524191 152.57199774648168 -10.589109353121165 -148.11276444076236 -10.589109353111164 -148.11276444066235 -5.797875639666259 145.29584503293438
168.0 -6.764888199802048 150.89174943591166 -10.619377354752979 -171.54025447145773 -10.619377354762978 -171.54025447145773 -6.639129004390465 143.612237267752
169.6 -7.320956354385219 153.67627997301304 -10.93996478319947 163.2014725623133 -10.939964783209478 163.20147256241327 -7.166286067407431 146.27061713272846
171.2 -6.9272962387014605 156.44605561058555 -11.7422846480947 137.54927323490534 -11.742284648084699 137.54927323490534 -6.7695752554737 148.93579973710155
172.8 -6.072106288712647 153.69931570888195 -12.985471543992507 113.43136364465842 -12.985471543982507 113.43136364455843 -5.91726559045494 146.28933168385925
174.4 -5.434787322408409 146.17624603434538 -14.458107908255224 91.80635711692364 -14.45810790825522 91.80635711679366 -5.268565269429114 139.02489352254833
176.0 -5.160099918563167 136.0823097887495 -15.966859790119512 72.49163996149545 -15.966859790119512 72.49163996144544 -4.967621716591342 129.30165653563907
177.6 -5.177674457629319 124.43296553244589 -17.413329338312348 54.84219839495754 -17.413329338302347 54.84219839509754 -4.947455333059371 118.14301153339123
179.2 -5.398914753516507 111.41418857632331 -18.774547995445523 38.228511537448824 -18.77454799548552 38.22851153741882 -5.123845200967823 105.76618898509996
180.8 -5.744885447398201 96.88355433122757 -20.069038522119026 22.18870124796748 -20.069038522149036 22.188701247997486 -5.425600471598849 92.06245983325454
182.4 -6.131289730056376 80.65601226471766 -21.334281469405415 6.440609032789194 -21.334281469415416 6.440609033235194 -5.782366610157952 76.8561948137152
184.0 -6.455206506391164 62.730775390882236 -22.61370873484708 -9.140815281051635 -22.613708734807076 -9.140815280701633 -6.111120662318706 60.085112195670256
185.6 -6.605042412398111 43.51330183224059 -23.948453291880064 -24.55172447157146 -23.948453291860062 -24.551724471111452 -6.317217286860344 41.977312281342385
187.2 -6.502911278478216 23.88996496882276 -25.371513931931897 -39.6915259222572 -25.371513931791903 -39.69152592169719 -6.31992047134248 23.16236514030072
188.8 -6.149488952455106 4.964556916320368 -26.904003112936113 -54.400937182791814 -26.90400311309611 -54.40093718264182 -6.091246083246602 4.562643968566398
190.4 -5.6195877114395545 -12.395604524397084 -28.55390686547071 -68.50338543223653 -28.553906865480712 -68.50338543162654 -5.6707813454599325 -12.940035640476944
192.0 -5.011862548217821 -27.79596627322538 -30.317471171557585 -81.84269379032871 -30.317471171577584 -81.8426937897987 -5.138093345538826 -28.797189998870245
193.6 -4.404977395641593 -41.230166483869844 -32.18253827161865 -94.30982758299282 -32.18253827161865 -94.30982758325283 -4.5716052022633145 -42.837900994252756
195.2 -3.844773735283296 -52.8882283197357 -34.13261198440811 -105.85563583721257 -34.13261198467811 -105.85563583621257 -4.025983105085381 -55.14140375475955
196.8 -3.350668091591671 -63.01779731155873 -36.15048922341002 -116.49176686306633 -36.15048922359002 -116.4917668644663 -3.530360936702921 -65.89763128006966
198.4 -2.9260462325258447 -71.85835015227082 -38.22078159373349 -126.28511591403829 -38.22078159437349 -126.28511591353828 -3.095534703147495 -75.32158434042746
200.0 -2.5662754167118913 -79.61895261027466 -40.331167100374124 -135.35152544959016 -40.331167100904125 -135.35152544999013 -2.72166603838797 -83.6149358580015
201.6 -2.2635464700435057 -86.47492565102274 -42.4724828342169 -143.85316311863986 -42.47248283432689 -143.85316311603987 -2.4037476542945355 -90.95345592139523
203.2 -2.0094184660326504 -92.57105368024395 -44.63772268129424 -152.00243636067995 -44.63772268099425 -152.00243636207998 -2.1348385480558156 -97.4856199725756
204.8 -1.7959963923610727 -98.02635394235516 -46.81964302137353 -160.0739386129769 -46.81964302083354 -160.0739386183769 -1.9077609176242256 -103.33522557521738
206.4 -1.6163771203445085 -102.93868400814458 -49.00595042122896 -168.42367537505186 -49.00595042078897 -168.42367536835184 -1.7158853218222965 -108.60502742636717
208.0 -1.4647352724266076 -107.38870545275148 -51.16987907448892 -177.50760666883195 -51.169879074948916 -177.50760667023192 -1.5534227331670445 -113.3802822623359
209.6 -1.3362492476574186 -111.44314960927319 -53.25298901636522 172.13089572058473 -53.25298901631521 172.1308957232847 -1.4154702704657738 -117.73185540194882
211.2 -1.2269690092593424 -115.15746112077655 -55.140415069135074 159.98638863772172 -55.14041506840507 159.9863886369217 -1.2979459309713062 -121.71882695593642
212.8 -1.133673970589188 -118.57792240097483 -56.648570846298384 145.9515864709142 -56.648570847668395 145.95158647891424 -1.197482435823332 -125.39063507111308
214.4 -1.0537418330867148 -121.74335674439259 -57.580412461813665 130.81818005544633 -57.58041246126366 130.81818004904633 -1.1113143302302293 -128.78882177021154
216.0 -0.9850356632727632 -124.68649365856841 -57.862495100084885 116.22886411604946 -57.862495099414886 116.22886411364945 -1.0371734689262366 -131.94844897669637
217.6 -0.9258101792627529 -127.4350649837883 -57.61290474450365 103.68101743492652 -57.61290474580364 103.6810174315265 -0.9731983861199018 -134.8992454154755
219.2 -0.874635558703168 -130.0126869685638 -57.03708942362604 93.71618996028653 -57.03708942316605 93.71618995633654 -0.9178584298607497 -137.66653587537584
220.8 -0.8303361974277501 -132.4395722420949 -56.303689464733175 86.09394438331118 -56.30368946509318 86.09394437681118 -0.8698915194730038 -140.27199528261758
222.4 -0.7919417785918521 -134.73310649163372 -55.5117903270909 80.29919799430041 -55.5117903265209 80.29919799057045 -0.8282536635013014 -142.73426204318525
224.0 -0.7586482762061284 -136.9083173444089 -54.709936741791836 75.83683439822029 -54.709936741791836 75.8368344016203 -0.7920782704966836 -145.0694383716648
225.6 -0.7297868847985602 -138.97825715253455 -53.919185126453 72.31778799015153 -53.91918512655301 72.3177879917915 -0.7606434469618971 -147.2914997885074
227.2 -0.7047992346892586 -140.954316812984 -53.147486301932425 69.45784489777786 -53.147486302172425 69.45784489511784 -0.7333457310676661 -149.41263148426222
228.8 -0.6832175784809474 -142.84648416099722 -52.39700269368346 67.05480542433804 -52.397002693563465 67.05480542682804 -0.7096789768520395 -151.4435056675458
230.4 -0.6646489073375422 -144.66355765893357 -51.6675093564407 64.96596178581245 -51.6675093563707 64.9659617849425 -0.6892173452699422 -153.39351115818377
232.0 -0.6487621764888427 -146.41332389725972 -50.95789157723814 63.09068251255158 -50.957891576938124 63.09068251287159 -0.6716015651678363 -155.27094422454834
233.6 -0.6352779950764444 -148.1027056930101 -50.266772104350785 61.3579071475876 -50.266772104110785 61.35790714489762 -0.6565277973695749 -157.083167881579
235.2 -0.6239602736896082 -149.73788622208716 -49.59275637143634 59.717382378268574 -49.59275637141634 59.71738237703857 -0.6437385733988188 -158.83674546185
236.8 -0.6146094318504576 -151.32441356407762 -48.934516825232095 58.13356221343668 -48.93451682500209 58.13356221428666 -0.633015392065104 -160.53755316267834
238.4 -0.6070568541961224 -152.86728920842538 -48.290812543214095 56.58136824613228 -48.290812542894095 56.581368244932285 -0.62417264826801 -162.19087539873794
240.0 -0.601160354118869 -154.3710434205553 -47.66048352341703 55.04324291310412 -47.66048352340703 55.043242913694115 -0.617052644070503 -163.80148608542697
