! Created with skrf 1.11.0 (http://scikit-rf.org).
# GHz S DB R 50.0 
!freq dBS11 angS11 dBS12 angS12 dBS13 angS13
! dBS14 angS14
! dBS21 angS21 dBS22 angS22 dBS23 angS23
! dBS24 angS24
! dBS31 angS31 dBS32 angS32 dBS33 angS33
! dBS34 angS34
! dBS41 angS41 dBS42 angS42 dBS43 angS43
! dBS44 angS44
!
80.0 -5.324924294480702 164.51145516928847 -7.435294031873701 -46.0668351447293 -5.678655241456697 -77.31334422507929 -7.422004610222698 -59.9265251526493
 -7.435294031873697 -46.06683514472929 -5.150498597207188 157.8570445576397 -7.576159417836747 -62.727179280431066 -5.76030037347702 -80.24856889601779
 -5.678655241456697 -77.31334422507929 -7.576159417836747 -62.727179280431066 -5.137679383245165 157.12967538964767 -7.608923835021111 -48.48153325064751
 -7.422004610222697 -59.9265251526493 -5.76030037347702 -80.24856889601779 -7.608923835021111 -48.48153325064751 -5.144442340485509 157.55934419181148
81.6 -5.343300848528455 163.69196797739735 -7.4594455180444355 -46.66149807534729 -5.636331951789436 -78.85019926204728 -7.461181206032437 -61.08357238143728
 -7.459445518044435 -46.66149807534728 -5.160724127298616 156.91725635373507 -7.622027357104146 -63.92400304520568 -5.721234802397941 -81.8313250589095
 -5.636331951789431 -78.85019926204728 -7.622027357104146 -63.92400304520568 -5.149691576581519 156.15111914496117 -7.6387247478306355 -49.08604286171618
 -7.4611812060324345 -61.08357238143728 -5.7212348023989446 -81.83132505890957 -7.6387247478306355 -49.08604286171618 -5.155273371334552 156.6044090157542
83.2 -5.3655636375592355 162.85033999066732 -7.481559010671632 -47.241146933774345 -5.592170643145636 -80.39403824157431 -7.500866705088632 -62.245916955494344
 -7.481559010671635 -47.24114693377434 -5.174403665675154 155.95700576426248 -7.668588737824209 -65.1249314744587 -5.680380240661379 -83.42006471104268
 -5.592170643145632 -80.39403824157432 -7.668588737824209 -65.1249314744587 -5.16538015395399 155.15041666075416 -7.666380320425884 -49.67277281816091
 -7.500866705088631 -62.24591695549435 -5.680380240661379 -83.42006471104268 -7.666380320425884 -49.67277281816091 -5.169640510609961 155.6283611427372
84.8 -5.391889420178286 161.98619157899606 -7.501457524197135 -47.80600675252988 -5.546173519891134 -81.9455629096499 -7.541137444212136 -63.4142530539399
 -7.5014575241971375 -47.80600675252988 -5.191678835706959 154.97601994899858 -7.715925197202257 -66.33060459412127 -5.637735612854961 -85.01544315532638
 -5.546173519891138 -81.9455629096499 -7.715925197202257 -66.33060459412127 -5.184905159426964 154.1272064959289 -7.6916844670969775 -50.241895237202414
 -7.541137444212137 -63.4142530539399 -5.637735612854961 -85.01544315532638 -7.6916844670969775 -50.241895237202414 -5.187692475884436 154.63089280867356
86.4 -5.422467258362622 161.09910373455477 -7.518956451224516 -48.356372582355725 -5.498347998500512 -83.50549472972573 -7.582081102784515 -64.58929098727573
 -7.518956451224516 -48.356372582355725 -5.212700412243828 153.97399253632904 -7.764130183755251 -67.54167507830343 -5.593304627695228 -86.61813367615875
 -5.498347998500515 -83.50549472972573 -7.764130183755251 -67.54167507830343 -5.2084376357955104 153.08108799644467 -7.714421298970219 -50.79366451720336
 -7.582081102784517 -64.58929098727573 -5.593304627695228 -86.61813367615875 -7.714421298970219 -50.79366451720336 -5.209587864868692 153.61166052803515
88.0 -5.457499856541995 160.1886178801266 -7.533863675514575 -48.892618915841 -5.448707065520577 -85.074574139421 -7.623797611328574 -65.77175506137101
 -7.5338636755145725 -48.892618915841 -5.237629328439497 152.9505839315715 -7.8133099171651965 -68.75880571218883 -5.547096092703923 -88.22882681066113
 -5.448707065520574 -85.074574139421 -7.8133099171651965 -68.75880571218883 -5.236160828746392 152.01162131148374 -7.7343652723286915 -51.328429126093965
 -7.623797611328577 -65.771755061371 -5.547096092703923 -88.22882681066113 -7.7343652723286915 -51.328429126093965 -5.235496240707106 152.57028530108113
89.6 -5.497204995088106 159.25423576886314 -7.545979843865513 -49.41520991359557 -5.39726965769451 -86.65355963672557 -7.666400133280511 -66.96238099690555
 -7.545979843865512 -49.41520991359557 -5.266637735739889 151.90542175456167 -7.863584427080137 -69.98266634855997 -5.4991242475378135 -89.84822946786733
 -5.397269657694509 -86.65355963672557 -7.863584427080137 -69.98266634855997 -5.268271466390944 150.91832752458447 -7.751281544628787 -51.846644367171244
 -7.666400133280509 -66.96238099690555 -5.4991242475378135 -89.84822946786733 -7.751281544628787 -51.846644367171244 -5.265599279275529 151.5063529495668
91.2 -5.5418170698046385 158.2954194725803 -7.555098827580874 -49.92471038091623 -5.344061064367871 -88.24322666486624 -7.71001612449787 -68.16191282756623
 -7.555098827580874 -49.92471038091623 -5.299910122986972 150.83810141522105 -7.915088675974003 -71.21393027036349 -5.4494091159757705 -91.47706386836977
 -5.3440610643678745 -88.24322666486624 -7.915088675974003 -71.21393027036349 -5.304981122999265 149.80068890186968 -7.764926577867829 -52.34888603901755
 -7.710016124497871 -68.16191282756624 -5.4494091159757705 -91.47706386836977 -7.764926577867829 -52.34888603901755 -5.300091985540821 150.4194145855268
92.8 -5.5915887502548856 157.31159145819188 -7.561008406451387 -50.42179740798305 -5.289113351843387 -89.84436626182305 -7.754788474855383 -69.37109918998304
 -7.561008406451384 -50.42179740798305 -5.3376445009614235 149.74818683000007 -7.967973771006554 -72.45326985984738 -5.3979768760800715 -93.11606627429535
 -5.289113351843383 -89.84436626182305 -7.967973771006554 -72.45326985984738 -5.346517676528299 148.65814926457662 -7.775049031309971 -52.83586485685986
 -7.754788474855383 -69.37109918998304 -5.3979768760800715 -93.11606627429535 -7.775049031309971 -52.83586485685986 -5.339183986580864 149.3089872207727
94.4 -5.6467927712565125 156.3021347485605 -7.563491209740473 -50.90727254509404 -5.23246580874747 -91.45778343682402 -7.800876736004474 -70.59068890599401
 -7.563491209740474 -50.90727254509404 -5.380053659090299 148.63521128671525 -8.022408269605661 -73.70135145981887 -5.344860247516582 -94.76598547647156
 -5.232465808747473 -91.45778343682402 -8.022408269605661 -73.70135145981887 -5.393126870388146 147.4901144867736 -7.781390986890084 -53.30844144557148
 -7.800876736004475 -70.59068890599401 -5.344860247516582 -94.76598547647156 -7.781390986890084 -53.30844144557148 -5.383100909395868 148.17455452129587
96.0 -5.7077238736412825 155.26639316115902 -7.56232594928247 -51.38207433580915 -5.174165410714469 -93.08429523317916 -7.848458438950473 -71.82142574512915
 -7.562325949282471 -51.38207433580917 -5.427366501499598 147.49867846233414 -8.078579583056957 -74.95882929716798 -5.290098894320869 -96.42758100313716
 -5.174165410714469 -93.08429523317916 -8.078579583056957 -74.95882929716798 -5.445073990884306 146.29595312352996 -7.78368955042025 -53.76764164776462
 -7.848458438950473 -71.82142574512915 -5.290098894320869 -96.42758100313716 -7.78368955042025 -53.76764164776462 -5.4320858523308315 147.0155677139227
97.6 -5.77470091243255 154.20367161114643 -7.557288979223479 -51.84729097625753 -5.114267301849482 -94.72472843348753 -7.89773050448848 -73.06404224028753
 -7.557288979223476 -51.84729097625753 -5.479829470091272 146.33806359641238 -8.13669548181258 -76.22633832064362 -5.233739840581534 -98.1016210119336
 -5.114267301849482 -94.72472843348753 -8.13669548181258 -76.22633832064362 -5.502645672959595 145.07499716734722 -7.781678869684802 -54.21467181800835
 -7.8977305044884805 -73.06404224028753 -5.233739840581534 -98.1016210119336 -7.781678869684803 -54.21467181800835 -5.486400959656797 145.83144664827898
99.2 -5.848069153106947 153.1132364604768 -7.548156214724429 -52.30417280881101 -5.052835289365429 -96.379916860671 -7.948910748789428 -74.319252413081
 -7.5481562147244325 -52.30417280881101 -5.537708062994917 145.1528148200596 -8.196985705452835 -77.50448578417644 -5.175837895560827 -99.78887982462794
 -5.052835289365429 -96.379916860671 -8.196985705452835 -77.50448578417644 -5.566151848192684 143.82654292765918 -7.775092606002607 -54.650933695001655
 -7.94891074878943 -74.319252413081 -5.175837895560827 -99.78887982462794 -7.775092606002607 -54.650933695001655 -5.546329109759124 144.62158101146633
100.8 -5.928202779674797 151.9943158813113 -7.534705437811268 -52.75414429425931 -4.989942346560267 -98.05069822571932 -8.002239485398269 -75.58774324773931
 -7.534705437811268 -52.75414429425931 -5.601288457489878 143.94235463354775 -8.259703679171457 -78.79384138470957 -5.116456083646899 -101.49013506280104
 -4.989942346560265 -98.05069822571932 -8.259703679171457 -78.79384138470957 -5.635927850763199 142.5498520206178 -7.763666888556573 -55.078038363075514
 -8.002239485398267 -75.58774324773931 -5.116456083646899 -101.49013506280104 -7.763666888556573 -55.078038363075514 -5.612175728508026 143.38533169132427
102.4 -6.015507642075953 150.84610018702455 -7.5167190120683856 -53.19881504119452 -4.925671117880383 -99.73791047200454 -8.057981223667385 -76.87016473194454
 -7.516719012068385 -53.198815041194536 -5.6708792475158525 142.70608151803614 -8.325128337320326 -80.09492573724951 -5.055666073233407 -103.20616434164907
 -4.925671117880383 -99.73791047200454 -8.325128337320326 -80.09492573724951 -5.712336699119767 141.2441524442943 -7.74714377021391 -55.497818734784474
 -8.057981223667385 -76.87016473194454 -5.055666073233407 -103.20616434164907 -7.74714377021391 -55.497818734784474 -5.6842707407221535 142.12203227147782
104.0 -6.110424275077806 149.66774206397923 -7.493987018815812 -53.639989408071656 -4.860114418191811 -101.44238756547165 -8.116426462049812 -78.16711826124165
 -7.493987018815814 -53.63998940807165 -5.746813307168033 141.44337165640485 -8.393566052834645 -81.40819694054649 -4.993548597141958 -104.93774147922716
 -4.860114418191811 -101.44238756547165 -8.393566052834645 -81.4081969405465 -5.795771573720313 139.9086397019737 -7.72527518949571 -55.912339914126186
 -8.116426462049814 -78.16711826124165 -4.993548597141958 -104.93774147922716 -7.72527518949571 -55.912339914126186 -5.762970674440673 140.83099063091115
105.6 -6.213431226807822 148.45835660911803 -7.466310815488088 -54.07967413516382 -4.79337571650509 -103.16495468063383 -8.177893572830088 -79.47914317893382
 -7.466310815488088 -54.07967413516382 -5.829449793273854 140.15358072068108 -8.465352669237731 -82.73403495392698 -4.930193855587728 -106.68563218108729
 -4.793375716505088 -103.16495468063383 -8.465352669237731 -82.73403495392698 -5.8866585145071575 138.54247791225282 -7.697827425645668 -56.32390674038267
 -8.177893572830088 -79.47914317893382 -4.930193855587728 -106.68563218108729 -7.697827425645668 -56.32390674038267 -5.84866093491621 139.51149060442333
107.2 -6.325048742476084 147.21702104121098 -7.433507002122457 -54.52008341740501 -4.725569592396456 -104.90642273681502 -8.242730772523455 -80.80670119598501
 -7.433507002122454 -54.520083417405026 -5.919176302428426 138.83604566517045 -8.540855629293514 -84.07272346761619 -4.865701890818769 -108.45058916227813
 -4.725569592396454 -104.90642273681502 -8.540855629293514 -84.07272346761619 -5.98545936601358 137.14480081969344 -7.664586012565181 -56.73506777387705
 -8.242730772523451 -80.80670119598501 -4.865701890818769 -108.45058916227813 -7.664586012565181 -56.73506777387705 -5.94175826821983 138.162793636024
108.8 -6.445842858481479 145.94277390469358 -7.3954117642682595 -54.9636407982461 -4.656822151088259 -106.66758224253613 -8.311318169519259 -82.1501584053061
 -7.395411764268256 -54.9636407982461 -6.016411200841537 137.49008643733114 -8.620476191131742 -85.42442890551716 -4.800182920633592 -110.23334667610723
 -4.656822151088255 -106.66758224253613 -8.620476191131742 -85.42442890551716 -6.092675003439695 135.7147125845023 -7.625361053183928 -57.148614973186454
 -8.311318169519256 -82.1501584053061 -4.800182920633592 -110.23334667610723 -7.625361053183928 -57.148614973186454 -6.0427134381838075 136.7841403325868
110.4 -6.576429974314106 144.63461352123753 -7.351885540556191 -55.41297725679793 -4.587271380788188 -108.44919641635794 -8.384069877287189 -83.50976457014794
 -7.351885540556191 -55.41297725679792 -6.121606149424736 136.11500748174612 -8.704651718723174 -86.78917614936913 -4.733757615909614 -112.03461442739754
 -4.587271380788186 -108.44919641635794 -8.704651718723174 -86.78917614936913 -6.208848880138916 134.25128817930354 -7.579992849429809 -57.56757833708119
 -8.384069877287189 -83.50976457014794 -4.733757615909614 -112.03461442739754 -7.579992849429809 -57.56757833708119 -6.152014145480277 135.3747517803256
112.0 -6.717481985535275 143.29149536170385 -7.3028179413134815 -55.87092488036866 -4.517067433432482 -110.25199356232865 -8.461436177766483 -84.88562932758865
 -7.302817941313481 -55.87092488036865 -6.235248851907469 134.7100988727117 -8.793858028744806 -88.16682051450596 -4.666557305163328 -113.85507085866253
 -4.517067433432482 -110.25199356232865 -8.793858028744806 -88.16682051450596 -6.334570946166428 132.75357316290908 -7.5283577356051214 -57.99521484944098
 -8.461436177766483 -84.88562932758865 -4.666557305163328 -113.85507085866253 -7.5283577356051214 -57.99521484944098 -6.270188224328683 133.93383044521636
113.6 -6.869732081703878 141.91232790048778 -7.2481328218298895 -56.340505567703595 -4.44637280745389 -112.07665869709358 -8.54390571513189 -86.27769490300359
 -7.248132821829887 -56.34050556770359 -6.357866060946378 133.2746368510649 -8.888611769953481 -89.55701543836773 -4.598724087089327 -115.69535581549673
 -4.446372807453888 -112.07665869709356 -8.888611769953481 -89.55701543836773 -6.470481999628324 131.22058252079978 -7.4703739761143755 -58.4349911755185
 -8.543905715131885 -86.27769490300359 -4.598724087089327 -115.69535581549673 -7.4703739761143755 -58.4349911755185 -6.397807161186869 132.46056040874612
115.2 -7.03398133982155 140.49596637380515 -7.187793391388054 -56.82491429858983 -4.375362408883053 -113.92382444362981 -8.632007695034055 -87.68570487928984
 -7.187793391388056 -56.82491429858983 -6.490026886772034 131.80788347298054 -8.989472803838394 -90.95917526096218 -4.530410830168091 -117.55606261572197
 -4.3753624088830545 -113.92382444362983 -8.989472803838394 -90.95917526096218 -6.617278548368804 129.6512981590165 -7.40600756412856 -58.890559715916304
 -8.632007695034057 -87.68570487928984 -4.530410830168091 -117.55606261572197 -7.40600756412856 -58.890559715916304 -6.535489991410067 130.95410661752675
116.8 -7.211106278850176 139.04120367853304 -7.121807218448483 -57.32749663439483 -4.304223464986486 -115.79406123526483 -8.726314058355483 -89.10916850177483
 -7.121807218448481 -57.32749663439483 -6.632346465495783 130.309084991378 -9.09704654620305 -92.37243237691057 -4.461781036791051 -119.43772957340225
 -4.304223464986486 -115.79406123526483 -9.09704654620305 -92.37243237691057 -6.775718280253616 128.0446645096828 -7.335277737778493 -59.36572782739559
 -8.726314058355483 -89.10916850177483 -4.461781036790048 -119.43772957340221 -7.335277737778493 -59.36572782739559 -6.683907645311489 129.41361271886223
118.4 -7.402067586669125 137.54675740307957 -7.050230974947018 -57.85172028139069 -4.23315526300002 -117.6878669026307 -8.827441591358019 -90.5473199246907
 -7.050230974947019 -57.85172028139069 -6.785490060874794 128.77746847886135 -9.211986217723837 -93.795587917929 -4.393008548345152 -121.34083105667014
 -4.23315526300002 -117.6878669026307 -9.211986217723837 -93.795587917929 -6.946626267464836 126.39958153575424 -7.258262016960419 -59.86442026245965
 -8.827441591358017 -90.5473199246907 -4.393008548345152 -121.34083105667014 -7.258262016960419 -59.86442026245965 -6.843787835204054 127.83819693035548
120.0 -7.607920290993078 136.0112516636074 -6.973174750282092 -58.401140750076706 -4.162368685649094 -119.6056557577167 -8.93605392537609 -91.99907171179669
 -6.973174750282093 -58.401140750076706 -6.950177695133608 127.21223606708234 -9.334994936598113 -95.22705497498808 -4.324277067296693 -123.26576819367347
 -4.1623686856500886 -119.60565575771666 -9.334994936598079 -95.22705497498806 -7.130902065872773 124.71489420776295 -7.175100558566347 -60.390635151095395
 -8.93605392537609 -91.99907171179669 -4.324277067296693 -123.26576819367347 -7.175100558566356 -60.39063515109527 -7.015920601605558 126.2269452314071
121.6 -7.8298257252391865 134.4331919925248 -6.890805759638487 -58.97936137228442 -4.092085515165484 -121.54774732632443 -9.05286336834049 -93.46296178790443
 -6.890805759638483 -58.97936137228442 -7.127189432943517 125.61255600613558 -9.46682756677032 -96.66479318400731 -4.25577947296377 -125.21285938162298
 -4.092085515165484 -121.5477473263244 -9.46682756677032 -96.66479318400731 -7.329527917239656 122.98937724244423 -7.085999632345571 -60.94839413551021
 -9.052863368340486 -93.46296178790443 -4.25577947296377 -125.21285938162298 -7.085999632345571 -60.94839413551021 -7.201164671472519 124.57890095689866
123.2 -8.069065745424297 132.81093095397145 -6.803351273230773 -59.589988183184786 -4.022537478854772 -123.51435493324479 -9.17863249656977 -94.93709289068478
 -6.80335127323077 -59.589988183184786 -7.317371479736483 123.97754953612218 -9.608292208867658 -98.10623326599702 -4.187716909595042 -127.18233079288488
 -4.02253747885477 -123.51435493324479 -9.608292208868697 -98.10623326599703 -7.543578323342002 121.22171353041949 -6.991234034345482 -61.541687554301376
 -9.178632496569774 -94.93709289068478 -4.187716909595042 -127.18233079288488 -6.991234034345482 -61.541687554301376 -7.400454826731701 122.89304961951778
124.8 -8.327059794001293 131.1426213888565 -6.711100603638549 -60.23658042487266 -3.953965012236551 -125.50557439256265 -9.314175416894553 -96.41906338469266
 -6.71110060363855 -60.23658042487266 -7.521643303576911 122.30627229299249 -9.760251185002346 -99.54818982041407 -4.120297628744679 -129.17430711958207
 -3.953965012236551 -125.50557439256266 -9.760251185002346 -99.54818982041407 -7.774231341595097 119.41046419809098 -6.891148280120603 -62.17441583915133
 -9.31417541689455 -96.41906338469266 -4.120297628744679 -129.17430711958207 -6.891148280120603 -62.17441583915133 -7.614810540543603 121.16829744957751
126.4 -8.605385593350887 129.42615312096692 -6.614406007962343 -60.922597666891214 -3.8866157205903438 -127.52137310658122 -9.460358584214347 -97.90588805898122
 -6.614406007962347 -60.9225976668912 -7.741006052011573 120.5976886335524 -9.92362131851524 -100.98676030365101 -4.053735573241626 -131.18880284349208
 -3.8866157205903455 -127.5213731065812 -9.92362131851524 -100.98676030365101 -8.02278205751732 117.55402760755335 -6.7861564546626525 -62.85032851519057
 -9.460358584214344 -97.9058880589812 -4.0537355732416245 -131.18880284349206 -6.7861564546626525 -62.85032851519057 -7.845346215956441 119.4034417152972
128.0 -8.905804502766218 127.65906747058841 -6.51368238977268 -61.65134475162141 -3.82074252678168 -129.5615799325614 -9.618101024723682 -99.3939072204614
 -6.513682389772679 -61.65134475162141 -7.976552615587864 118.85063682043686 -10.09937323918775 -102.41720766515007 -3.9882486972738915 -133.2257143561049
 -3.820742526781679 -129.5615799325614 -10.09937323918775 -102.41720766515007 -8.29065882898586 115.65058374267215 -6.676740638844292 -63.572962371236386
 -9.618101024723678 -99.3939072204614 -3.9882486972738915 -133.2257143561049 -6.676740638844292 -63.572962371236386 -8.093283462219732 117.59713031547251
129.6 -9.23029291260303 125.83844179823286 -6.4094057217658005 -62.425915944822904 -3.756601502643801 -131.6258762164629 -9.788373765429801 -100.87868200126293
 -6.4094057217658005 -62.425915944822904 -8.229479793464304 117.06378243825742 -10.288529343754206 -103.83382354497652 -3.924057026547889 -135.28481329432526
 -3.756601502643801 -131.6258762164629 -10.288529343754206 -103.83382354497652 -8.579443081492732 113.69801924043021 -6.563447880724245 -64.34558047411576
