! Created with skrf 1.11.0 (http://scikit-rf.org).
# GHz S DB R 50.0 
!freq dBS11 angS11 dBS12 angS12 dBS13 angS13
! dBS21 angS21 dBS22 angS22 dBS23 angS23
! dBS31 angS31 dBS32 angS32 dBS33 angS33
!
80.0 -17.033057463343958 166.55402249767104 -4.400181255274369 -44.275566145772046 -4.402338391239369 -44.25535330157203
 -4.40018125527437 -44.27556614577204 -7.5632531730738055 42.24720335898451 -7.553720702575568 -95.35192926981202
 -4.402338391239367 -44.255353301572036 -7.553720702575568 -95.35192926981202 -7.559551763146529 42.306847164824525
81.6 -17.154417901850373 166.6650339804531 -4.399287842074849 -45.16463522239949 -4.401496375224847 -45.143727203209494
 -4.399287842074849 -45.164635222389485 -7.455257134394966 41.20143954682202 -7.570246397008731 -97.164068815758
 -4.401496375225849 -45.14372720320949 -7.570246397008759 -97.16406881575789 -7.451525088393694 41.262282663319475
83.2 -17.27784338159797 166.80174851494849 -4.3984008607830525 -46.05421236475984 -4.400660219913051 -46.03259966855983
 -4.398400860783054 -46.054212364759834 -7.350903798897736 40.16428531970862 -7.586607069865416 -98.97383959601726
 -4.400660219913051 -46.03259966855984 -7.586607069865416 -98.97383959601726 -7.347141087787204 40.22631991321506
84.8 -17.40327750751383 166.96538065511646 -4.397523481168119 -46.94429757642614 -4.39983305788112 -46.921970940986114
 -4.397523481168117 -46.94429757642614 -7.250071024226448 39.13541007521717 -7.6027950667122575 -100.78129237116359
 -4.399833057881121 -46.92197094098611 -7.6027950667122575 -100.78129237116359 -7.24627761937942 39.198628399980564
86.4 -17.530653060701198 167.1571971697917 -4.396658846871087 -47.83489022764348 -4.399017997628087 -47.811840631493475
 -4.396658846871086 -47.83489022764348 -7.152642908935846 38.11450082288258 -7.618802945340278 -102.58647882799225
 -4.399017997628087 -47.81184063149348 -7.618802945340278 -102.58647882799225 -7.148818784555811 38.17889520873646
88.0 -17.659890737677276 167.3785166813186 -4.395810074054182 -48.72598905756465 -4.398218122112183 -48.702207720724644
 -4.395810074054182 -48.72598905756463 -7.058509405240842 37.10126046541057 -7.634623477230228 -104.3894515370865
 -4.398218122113182 -48.702207720724644 -7.634623477230232 -104.38945153708637 -7.054654540591989 37.166823307739946
89.6 -17.790897775702213 167.6307086407341 -4.3949802499035515 -49.61759217732746 -4.3974364871395535 -49.59307056172745
 -4.394980249903552 -49.61759217732746 -6.967565963661514 36.09540625951026 -7.650249648629885 -106.19026391661872
 -4.397436487139553 -49.59307056172745 -7.650249648629885 -106.19026391661872 -6.96368034512618 36.16213001107521
91.2 -17.923566460889873 167.91519149364026 -4.3941724309852965 -50.509697073858696 -4.396676119623296 -50.4844268836087
 -4.3941724309852965 -50.509697073858696 -6.879713206746404 35.09666843445266 -7.66567466137091 -107.98897020107643
 -4.396676119623298 -50.48442688360869 -7.66567466137091 -107.98897020107643 -6.875796829711266 35.164545598974264
92.8 -18.05777251816688 168.23342987181596 -4.393389641504873 -51.40230061441292 -4.395940015753873 -51.37627379586292
 -4.393389641504875 -51.40230061441293 -6.7948566292939185 34.10478894975512 -7.680891933533173 -109.78562541550986
 -4.395940015753873 -51.37627379586292 -7.680891933533173 -109.78562541550986 -6.790909499877358 34.17381207707683
94.4 -18.193373384414432 168.58693062199995 -4.392634871477671 -52.29539905175415 -4.395231139078674 -52.26860779356417
 -4.392634871477672 -52.29539905175415 -6.712906322771278 33.11952037620153 -7.695895099986508 -111.58028535449968
 -4.395231139078676 -52.26860779356417 -7.695895099986508 -111.58028535449968 -6.7089284594000365 33.18968205872207
96.0 -18.330206370185017 168.9772374584504 -4.39191107482617 -53.18898803007557 -4.394552418534169 -53.16142476309556
 -4.39191107482617 -53.18898803007557 -6.6337767218604675 32.14062488559489 -7.710678012934307 -113.37300656620869
 -4.394552418534171 -53.16142476309556 -7.710678012934307 -113.37300656620869 -6.62976815670531 32.21191775606051
97.6 -18.46808672015076 169.40592400134108 -4.391221167431206 -54.083062591529966 -4.393906746414204 -54.05471998872997
 -4.391221167431206 -54.08306259152997 -6.557386371255573 31.16787333758898 -7.725234742493368 -115.16384633992884
 -4.393906746414206 -54.054719988729964 -7.725234742493368 -115.16384633992884 -6.553347151525947 31.24029006781279
99.2 -18.606805588389644 169.87458494211032 -4.390568025139635 -54.977617183289894 -4.3932969763236365 -54.94848815963991
 -4.390568025139634 -54.9776171832899 -6.483657711035189 30.201044452521742 -7.73955957736621 -116.95286269942484
 -4.393296976323635 -54.94848815963991 -7.73955957736621 -116.95286269942484 -6.479587900152081 30.274577753159832
100.8 -18.746127952367512 170.38482505505584 -4.3899544817417855 -55.87264566530865 -4.392725921091786 -55.84272337766866
 -4.3899544817417855 -55.87264566530865 -6.412516879088365 29.23992406117576 -7.753647025680557 -118.74011439979742
 -4.392725921091782 -55.84272337766866 -7.753647025680557 -118.74011439979742 -6.4084165577245376 29.314566682282415
102.4 -18.885790498582942 170.93824575893245 -4.389383326931194 -56.7681413185417 -4.392196350685192 -56.73741916564171
 -4.389383326931194 -56.7681413185417 -6.343893529226331 28.28430442293157 -7.76749181605344 -120.52566092896936
 -4.3921963506851895 -56.73741916564171 -7.76749181605344 -120.52566092896936 -6.339762796239333 28.360049155227482
104.0 -19.025499523996356 171.53642892750196 -4.3888573042548975 -57.66409685378704 -4.3917109901048965 -57.632568476167044
 -4.388857304254901 -57.66409685378703 -6.277720663742325 27.333983605547886 -7.781088898884532 -122.30956251360269
 -4.3917109901048965 -57.632568476167044 -7.781088898884532 -122.30956251360269 -6.2735596369878195 27.41082328231998
105.6 -19.164928910113183 172.18091765048985 -4.3883791090603905 -58.560504420982205 -4.391272517293389 -58.52816370107221
 -4.388379109060387 -58.56050442098222 -6.213934479338129 26.388764919672518 -7.794433448040586 -124.0918801295721
 -4.391272517293385 -58.52816370107222 -7.794433448040586 -124.0918801295721 -6.209743296388728 26.466692419231855
107.2 -19.303718241476105 172.87319366948523 -4.387951386444407 -59.4573556190171 -4.390883561042408 -59.42419668128712
 -4.387951386444407 -59.4573556190171 -6.152474225391885 25.448456402642933 -7.807520862896232 -125.87267551749545
 -4.390883561042403 -59.42419668128712 -7.807520862896232 -125.87267551749545 -6.148253044150999 25.527464651178697
108.8 -19.441471156311223 173.61465125450653 -4.387576729211854 -60.354641506087056 -4.3905466989238535 -60.32065871723706
 -4.387576729211854 -60.354641506087056 -6.093282073686961 24.512870346701845 -7.820346770852328 -127.65201120214357
 -4.390546698923855 -60.32065871723706 -7.820346770852328 -127.65201120214357 -6.089031072915705 24.592952321532238
110.4 -19.577754034678506 174.40656735808588 -4.387257675854615 -61.25235261046483 -4.390264455228614 -61.217540579804826
 -4.387257675854613 -61.25235261046485 -6.036302998805048 23.581822866837364 -7.832907030394997 -129.4299505178446
 -4.390264455228618 -61.217540579804826 -7.832907030394997 -129.4299505178446 -6.032022378562068 23.662971599954897
112.0 -19.71209514694539 175.2500679874594 -4.3869967085450385 -62.15047894173556 -4.390039298939043 -62.11483252161555
 -4.38699670854504 -62.15047894173554 -5.98148466848601 22.65513350448721 -7.84519773479904 -131.20655763900453
 -4.3900392989390395 -62.11483252161556 -7.84519773479904 -131.20655763900453 -5.977174650489861 22.737342086323043
113.6 -19.843984402346187 176.14609087700987 -4.38679625115729 -63.04901000254092 -4.389873641722289 -63.012524288960904
 -4.386796251157292 -63.04901000254091 -5.9287773432824515 21.732624863435365 -7.857215216535856 -132.9818976158638
 -4.389873641722292 -63.012524288960904 -7.857215216535856 -132.9818976158638 -5.924438171205509 21.81588644680012
115.2 -19.9728738516831 177.0953447314687 -4.386658667318349 -63.947934800686006 -4.38976983596335 -63.910605134016
 -4.386658667318347 -63.947934800686006 -5.878133785009194 20.814122274815713 -7.868956052530782 -134.75603641631713
 -4.389769835963348 -63.910605134016 -7.8689560525307805 -134.75603641631713 -5.87376572470882 20.898430078904216
116.8 -20.098179108233598 178.09826554313702 -4.3865862584910635 -64.84724186173487 -4.389730172826064 -64.80906382760487
 -4.386586258491065 -64.84724186173487 -5.8295091734540385 19.89945348812084 -7.880417070371124 -136.5290409747275
 -4.389730172826066 -64.80906382760487 -7.880417070371124 -136.5290409747275 -5.825112513151042 19.98480080266744
118.4 -20.21928185357876 179.15497076555783 -4.386581262096982 -65.74691924198595 -4.389756880362982 -65.70788867235594
 -4.386581262096982 -65.74691924198595 -5.782861030964974 18.98844838604858 -7.8915953555991365 -138.30097924616572
 -4.389756880362981 -65.70788867235594 -7.8915953555991365 -138.30097924616572 -5.7784360813742826 19.074828575360677
120.0 -20.335533588199443 -179.7347875577755 -4.386645849678695 -66.64695454190158 -4.3898521216616935 -66.60706751628159
 -4.386645849678693 -66.6469545419016 -5.738149154570426 18.080938720346136 -7.9024882603002835 -140.0719202695257
 -4.389852121661692 -66.60706751628159 -7.9024882603002835 -140.0719202695257 -5.7336962490023495 18.168345227432805
121.6 -20.446260766851537 -178.57166926463944 -4.386782125108785 -67.54733491983596 -4.390017993039787 -67.50658776675596
 -4.386782125108787 -67.54733491983596 -5.6953355553052285 17.17675786718604 -7.913093413077101 -141.84193423694822
 -4.390017993039786 -67.50658776675596 -7.913093413077101 -141.84193423694822 -5.690855049737977 17.26518421771301
123.2 -20.550771422992568 -177.35679035350333 -4.386992122841368 -68.44804710627973 -4.390256522297371 -68.40643640496972
 -4.386992122841371 -68.44804710627972 -5.654384404570988 16.27574059977496 -7.923408730709157 -143.61109257232394
 -4.390256522297374 -68.40643640496972 -7.923408730709157 -143.61109257232394 -5.649876677710929 16.365180405946553
124.8 -20.648363333724014 -176.09176295638377 -4.387277806227173 -69.3490774183664 -4.390569667011173 -69.3066000006564
 -4.387277806227171 -69.3490774183664 -5.615261987354055 15.37772287661316 -7.933432431713699 -145.3794680186367
 -4.390569667011175 -69.3066000006564 -7.933432431713699 -145.3794680186367 -5.610727440700058 15.468169840921158
126.4 -20.738333704995924 -174.77872862855176 -4.387641065867891 -70.25041177479095 -4.390959312895891 -70.20706472730095
 -4.387641065867889 -70.25041177479095 -5.57793666218064 14.482541644392168 -7.943163052032772 -147.14713473511637
 -4.390959312895893 -70.20706472730095 -7.943163052032772 -147.14713473511637 -5.573375720102607 14.57398956317931
128.0 -20.81999026790826 -173.42038242767575 -4.388083718039634 -71.15203571107914 -4.3914272722186345 -71.10781637770914
 -4.388083718039632 -71.15203571107914 -5.542378827859309 13.590034653611363 -7.952599463276174 -148.914168404611
 -4.391427272218633 -71.10781637770914 -7.952599463276174 -148.914168404611 -5.537791937703968 13.682477420458307
129.6 -20.89266357478249 -172.0199852557036 -4.388607503173674 -72.05393439512183 -4.391975282282672 -72.00884037989185
 -4.388607503174673 -72.05393439512184 -5.508560896966391 12.700040286464901 -7.961740893786616 -150.68064635206488
 -4.391975282283674 -72.00884037989185 -7.9617408937876135 -150.68064635206505 -5.503948529212931 12.793471895384359
131.2 -20.955720173828215 -170.5813621335426 -4.389214084400954 -72.95609264312232 -4.392605003972959 -72.91012181335232
 -4.389214084400954 -72.95609264312232 -5.476457276312477 11.812397395892589 -7.970586953080183 -152.44664767545567
 -4.392605003972958 -72.91012181335232 -7.970586953080183 -152.44664767545567 -5.471819924795112 11.906811944346591
132.8 -21.00857623361191 -169.10888449544916 -4.389905046159282 -73.85849493576413 -4.393318020370286 -73.81164542569415
 -4.389905046159284 -73.85849493576413 -5.446044354499142 10.926945155095394 -7.9791376600660255 -154.21225338961634
 -4.393318020370286 -73.81164542569415 -7.9791376600660255 -154.21225338961634 -5.441382536716974 11.022336846798586
134.4 -21.050711094893035 -167.60743524474546 -4.390681892872036 -74.76112543471373 -4.394115835439036 -74.71339564955372
 -4.390681892873035 -74.76112543471372 -5.417300496941523 10.043522917529996 -7.987393475718728 -155.97754658414198
 -4.394115835439034 -74.71339564955373 -7.9873934757187275 -155.97754658414217 -5.412614754481769 10.139886065098006
136.0 -21.081680158895487 -166.0823561724362 -4.391546047702903 -75.66396799933307 -4.394999872790902 -75.61535661989305
 -4.391546047702903 -75.66396799933307 -5.390206048776841 9.1619700870155 -7.995355340919419 -157.7426125959915
 -4.3949998727909 -75.61535661989306 -7.995355340919419 -157.7426125959915 -5.385496947878394 9.259299114466408
137.6 -21.101126490950733 -164.539378365375 -4.392498851371556 -76.56700620367171 -4.39597147452656 -76.51751219155172
 -4.392498851371556 -76.56700620367171 -5.364743346153498 8.282125998361803 -8.00302472025637 -159.50753919903264
 -4.39597147452656 -76.51751219155172 -8.00302472025637 -159.5075391990326 -5.360011478439702 8.380415443543772
139.2 -21.108790534760086 -162.98453732774206 -4.393541561056032 -77.47022335364841 -4.397031900152028 -77.4198459571184
 -4.393541561056032 -77.47022335364841 -5.3408967366029545 7.4038298093671395 -8.010403652792826 -161.27241680904575
 -4.3970319001520295 -77.4198459571184 -8.010403652792826 -161.27241680904575 -5.336142720015675 7.503074326362367
140.8 -21.104517399822882 -161.42407561730462 -4.394675349363934 -78.37360250449778 -4.39818232558394 -78.32234126510777
 -4.3946753493639354 -78.37360250449777 -5.318652609334725 6.526920405572443 -8.017494810982912 -163.03733870874132
 -4.398182325583936 -78.32234126510777 -8.017494810982912 -163.03733870874132 -5.313877089312069 6.627114767169332
142.4 -21.08826130121699 -159.86433672322832 -4.395901303390931 -79.2771264782738 -4.399423842240932 -79.22498123833381
 -4.395901303390931 -79.2771264782738 -5.297999436445467 5.651236319334848 -8.024301569110069 -164.8024012897328
 -4.399423842241929 -79.22498123833381 -8.024301569110072 -164.8024012897326 -5.293203087386724 5.752375419704223
144.0 -21.060086887885177 -158.3116545935701 -4.397220423843643 -80.18077788160332 -4.400757456223641 -80.12774879267332
 -4.397220423843644 -80.18077788160332 -5.2789278263164485 4.77661566683273 -8.030828082930743 -166.56770431539326
 -4.400757456223639 -80.12774879267332 -8.030828082930743 -166.56770431539326 -5.274111353376394 4.878694524559135
145.6 -21.020167379716206 -156.77224356601798 -4.398633624262799 -81.084539123462 -4.402184087580802 -81.03062665594199
 -4.398633624262799 -81.084539123462 -5.261430590627933 3.9028961062604957 -8.037079382450402 -168.33335120201173
 -4.402184087580802 -81.03062665594199 -8.037079382450402 -168.33335120201173 -5.256594731906308 4.005909867933809
147.2 -20.968779625119755 -155.2520934218405 -4.400141730307321 -81.98839243315732 -4.403704569677323 -81.93359738709731
 -4.400141730307319 -81.98839243315732 -5.245502826813892 3.0299148232536943 -8.043061480248513 -170.0994493196227
 -4.403704569677322 -81.93359738709731 -8.043061480248513 -170.0994493196227 -5.240648355991542 3.133858767881922
148.8 -20.906296371446373 -153.75687387881575 -4.401745479132991 -82.892319878196 -4.4053196486599955 -82.836643395656
 -4.401745479132993 -82.892319878196 -5.231142018066323 2.15750855029537 -8.048781498172966 -171.86611031171398
 -4.405319648659994 -82.836643395656 -8.048781498172966 -171.86611031171398 -5.226269747565125 2.262378094868571
150.4 -20.833176191952557 -152.29185211013868 -4.403445518844039 -83.79630338231583 -4.407029983020039 -83.73974696131583
 -4.403445518844038 -83.79630338231583 -5.218348153387462 1.2855136304456924 -8.05424781579286 -173.6334504282238
 -4.407029983020041 -83.73974696131583 -8.05424781579286 -173.6334504282238 -5.2134589381396985 1.3913043370578482
152.0 -20.749951621527188 -150.86182591566018 -4.405242408025079 -84.70032474340698 -4.408836143263077 -84.64289025379698
 -4.405242408025077 -84.70032474340698 -5.207123870742568 0.4137661376632292 -8.059470244770278 -175.40159087217143
 -4.408836143263077 -84.64289025379698 -8.059470244770278 -175.40159087217143 -5.2022186126483945 0.5204737227271975
153.6 -20.657216112157514 -149.47107408452177 -4.40713661535083 -85.60436565138075 -4.410738611690831 -85.54605535291073
 -4.40713661535083 -85.60436565138075 -5.19747462686087 -0.4578979289963825 -8.064460234087704 -177.17065814984744
 -4.410738611690828 -85.54605535291073 -8.064460234088266 -177.17065814974768 -5.192554280040476 -0.35027758279920396
155.2 -20.555610427324478 -148.12332439636546 -4.409128519264472 -86.50840770594333 -4.412737782291476 -86.44922426881332
 -4.409128519264474 -86.50840770594333 -5.189408897874609 -1.329642354790544 -8.069231112144472 -178.94078441445123
 -4.412737782291476 -86.44922426881332 -8.069231112144472 -178.94078441445123 -5.1844744748396385 -1.2211131830038697
156.8 -20.44580905692687 -146.8217387046513 -4.411218407727987 -87.41243243420337 -4.414833960755989 -87.35237896248334
 -4.411218407727987 -87.41243243420335 -5.182938415836343 -2.201630293331867 -8.07379837302823 179.28789220851044
 -4.41483396075599 -87.35237896248334 -8.07379837302823 179.28789220851044 -5.177990994701215 -2.092196029619628
158.4 -20.328507161145364 -145.56891371851617 -4.4134064780351885 -88.31642130803849 -4.41702736461619 -88.2555013664085
 -4.41340647803519 -88.31642130803849 -5.178078446900902 -3.0740236859324974 -8.0781800157444 177.5152273412167
 -4.417027364616188 -88.2555013664085 -8.0781800157444 177.5152273412167 -5.173119179776026 -2.963687836098745
160.0 -20.20440845439461 -144.36689548365325 -4.415692836677769 -89.22035576119043 -4.41931812351477 -89.15857340553043
 -4.415692836677769 -89.22035576119043 -5.1748481180934505 -3.946982465517454 -8.082396947191503 175.74107014500296
 -4.419318123514768 -89.15857340553043 -8.082396947191503 175.74107014500296 -5.169878240831914 -3.8357482740055935
161.6 -20.074214332042768 -143.2172051850946 -4.41807749925271 -90.12421720608545 -4.42170627962771 -90.06157701839545
 -4.41807749925271 -90.12421720608545 -5.173270800508631 -4.820663477165274 -8.086473461761507 173.96526323293267
 -4.421706279627712 -90.06157701839545 -8.086473461761507 173.96526323293267 -5.168291643965813 -4.708533884024704
163.2 -19.938614433457186 -142.12087373156865 -4.420560390399718 -91.02798705011918 -4.424191788235717 -90.96449417855918
 -4.420560390399719 -91.02798705011918 -5.17337455816543 -5.695219026399327 -8.090437813431512 172.18764276286328
 -4.424191788235719 -90.96449417855918 -8.090437813431512 172.18764276286328 -5.168387561176882 -5.582196612137921
164.8 -19.79827873442874 -141.07848260954466 -4.423141343754816 -91.93164671157486 -4.426774518472811 -91.86730691642484
 -4.423141343755815 -91.93164671157486 -5.17519267276274 -6.570794936629377 -8.094322899260488 170.4080388021768
 -4.426774518472813 -91.86730691642484 -8.094322899260485 170.40803880217658 -5.170199397024095 -6.456881851722725
166.4 -19.653851175929525 -140.09020867025288 -4.425820101880512 -92.83517763488925 -4.429454254273518 -92.76999734129926
 -4.425820101880516 -92.83517763488925 -5.178764255740732 -7.447527959087322 -8.098167077187309 168.6262760888879
 -4.429454254273516 -92.76999734129926 -8.098167077187309 168.6262760888879 -5.173766402794646 -7.3327258341126464
168.0 -19.505944767806675 -139.15587078350762 -4.4285963161538735 -93.73856130532273 -4.4322306955448765 -93.67254766391275
 -4.4285963161538735 -93.73856130532273 -5.1841349597771424 -8.325542326684815 -8.102015145431261 166.842175363589
 -4.4322306955448765 -93.67254766391275 -8.102015145431261 166.842175363589 -5.179134390315717 -8.209852157918023
169.6 -19.35513805567634 -138.27497662488506 -4.431469546565014 -94.64177926278585 -4.435103459603013 -94.57494021950583
